(1699224078.418038) can0 02000200#0000
(1699224078.428039) can0 02000200#0000
(1699224078.428998) can0 03C30F0F#87878787878787
(1699224078.438038) can0 02000200#0000
(1699224078.448043) can0 02000200#0000
(1699224078.452193) can0 00E#5E8E13AB00000000
(1699224078.458028) can0 02000200#0000
(1699224078.468039) can0 02000200#0000
(1699224078.478066) can0 02000200#0000
(1699224078.488128) can0 02000200#0000
(1699224078.498091) can0 02000200#0000
(1699224078.502290) can0 00E#5E8E13AB00000000
(1699224078.508109) can0 02000200#0000
(1699224078.518142) can0 02000200#0000
(1699224078.528135) can0 02000200#0000
(1699224078.529120) can0 03C30F0F#87878787878787
(1699224078.534071) can0 14300100#0000
(1699224078.538137) can0 02000200#0000
(1699224078.548145) can0 02000200#0000
(1699224078.552332) can0 00E#5E8E13AB00000000
(1699224078.558158) can0 02000200#0000
(1699224078.568176) can0 02000200#0000
(1699224078.578199) can0 02000200#0000
(1699224078.588223) can0 02000200#0000
(1699224078.598237) can0 02000200#0000
(1699224078.598885) can0 0C140000#02
(1699224078.602445) can0 00E#5E8E13AB00000000
(1699224078.608254) can0 02000200#0000
(1699224078.618263) can0 02000200#0000
(1699224078.624026) can0 140C0101#0000
(1699224078.628295) can0 02000200#0000
(1699224078.629298) can0 03C30F0F#87878787878787
(1699224078.638292) can0 02000200#0000
(1699224078.648310) can0 02000200#0000
(1699224078.652530) can0 00E#5E8E13AB00000000
(1699224078.658322) can0 02000200#0000
(1699224078.668384) can0 02000200#0000
(1699224078.678397) can0 02000200#0000
(1699224078.688396) can0 02000200#0000
(1699224078.698382) can0 02000200#0000
(1699224078.702588) can0 00E#5E8E13AB00000000
(1699224078.708465) can0 02000200#0000
(1699224078.718415) can0 02000200#0000
(1699224078.728487) can0 02000200#0000
(1699224078.729437) can0 03C30F0F#87878787878787
(1699224078.738444) can0 02000200#0000
(1699224078.748533) can0 02000200#0000
(1699224078.752636) can0 00E#5E8E13AB00000000
(1699224078.758482) can0 02000200#0000
(1699224078.763823) can0 0C140100#C0
(1699224078.768515) can0 02000200#0000
(1699224078.778503) can0 02000200#0000
(1699224078.783928) can0 14300100#0000
(1699224078.788541) can0 02000200#0000
(1699224078.798551) can0 02000200#0000
(1699224078.802770) can0 00E#5E8E13AB00000000
(1699224078.808593) can0 02000200#0000
(1699224078.818560) can0 02000200#0000
(1699224078.828595) can0 02000200#0000
(1699224078.829696) can0 03C30F0F#87878787878787
(1699224078.838601) can0 02000200#0000
(1699224078.848613) can0 02000200#0000
(1699224078.852798) can0 00E#5E8E13AB00000000
(1699224078.858624) can0 02000200#0000
(1699224078.863751) can0 0C140100#C1
(1699224078.868634) can0 02000200#0000
(1699224078.873848) can0 140C0101#0000
(1699224078.878654) can0 02000200#0000
(1699224078.888692) can0 02000200#0000
(1699224078.898697) can0 02000200#0000
(1699224078.902888) can0 00E#5E8E13AB00000000
(1699224078.908726) can0 02000200#0000
(1699224078.918708) can0 02000200#0000
(1699224078.928746) can0 02000200#0000
(1699224078.929737) can0 03C30F0F#87878787878787
(1699224078.938753) can0 02000200#0000
(1699224078.948758) can0 02000200#0000
(1699224078.952939) can0 00E#5E8E13AB00000000
(1699224078.958775) can0 02000200#0000
(1699224078.968787) can0 02000200#0000
(1699224078.978806) can0 02000200#0000
(1699224078.988911) can0 02000200#0000
(1699224078.998921) can0 02000200#0000
(1699224079.003113) can0 00E#5E8E13AB00000000
(1699224079.008908) can0 02000200#0000
(1699224079.018912) can0 02000200#0000
(1699224079.028957) can0 02000200#0000
(1699224079.029907) can0 03C30F0F#87878787878787
(1699224079.033768) can0 14300100#0000
(1699224079.038969) can0 02000200#0000
(1699224079.049010) can0 02000200#0000
(1699224079.053272) can0 00E#5E8E13AB00000000
(1699224079.059021) can0 02000200#0000
(1699224079.068999) can0 02000200#0000
(1699224079.078999) can0 02000200#0000
(1699224079.089054) can0 02000200#0000
(1699224079.098109) can0 0C140000#03
(1699224079.098940) can0 02000200#0000
(1699224079.103154) can0 00E#5E8E13AB00000000
(1699224079.108970) can0 02000200#0000
(1699224079.119001) can0 02000200#0000
(1699224079.123504) can0 1C0C0100#64
(1699224079.124208) can0 140C0101#0000
(1699224079.129006) can0 02000200#0000
(1699224079.129983) can0 03C30F0F#87878787878787
(1699224079.139004) can0 02000200#0000
(1699224079.149007) can0 02000200#0000
(1699224079.153191) can0 00E#5E8E13AB00000000
(1699224079.159025) can0 02000200#0000
(1699224079.169042) can0 02000200#0000
(1699224079.179052) can0 02000200#0000
(1699224079.189069) can0 02000200#0000
(1699224079.193945) can0 1C300104#F74E0200F74E0200
(1699224079.199081) can0 02000200#0000
(1699224079.203286) can0 00E#5E8E13AB00000000
(1699224079.209096) can0 02000200#0000
(1699224079.219110) can0 02000200#0000
(1699224079.229140) can0 02000200#0000
(1699224079.230126) can0 03C30F0F#87878787878787
(1699224079.239144) can0 02000200#0000
(1699224079.249161) can0 02000200#0000
(1699224079.253339) can0 00E#5E8E13AB00000000
(1699224079.259169) can0 02000200#0000
(1699224079.269182) can0 02000200#0000
(1699224079.279199) can0 02000200#0000
(1699224079.283471) can0 14300100#0000
(1699224079.289216) can0 02000200#0000
(1699224079.299229) can0 02000200#0000
(1699224079.303435) can0 00E#5E8E13AB00000000
(1699224079.309245) can0 02000200#0000
(1699224079.319265) can0 02000200#0000
(1699224079.329294) can0 02000200#0000
(1699224079.330305) can0 03C30F0F#87878787878787
(1699224079.339293) can0 02000200#0000
(1699224079.349307) can0 02000200#0000
(1699224079.353496) can0 00E#5E8E13AB00000000
(1699224079.359323) can0 02000200#0000
(1699224079.369337) can0 02000200#0000
(1699224079.373392) can0 140C0101#0000
(1699224079.379361) can0 02000200#0000
(1699224079.389465) can0 02000200#0000
(1699224079.399471) can0 02000200#0000
(1699224079.403680) can0 00E#5E8E13AB00000000
(1699224079.409461) can0 02000200#0000
(1699224079.419468) can0 02000200#0000
(1699224079.429483) can0 02000200#0000
(1699224079.430486) can0 03C30F0F#87878787878787
(1699224079.439509) can0 02000200#0000
(1699224079.449512) can0 02000200#0000
(1699224079.453726) can0 00E#5E8E13AB00000000
(1699224079.459555) can0 02000200#0000
(1699224079.469557) can0 02000200#0000
(1699224079.479569) can0 02000200#0000
(1699224079.489582) can0 02000200#0000
(1699224079.499608) can0 02000200#0000
(1699224079.503782) can0 00E#5E8E13AB00000000
(1699224079.509560) can0 02000200#0000
(1699224079.519574) can0 02000200#0000
(1699224079.529600) can0 02000200#0000
(1699224079.530593) can0 03C30F0F#87878787878787
(1699224079.533282) can0 14300100#0000
(1699224079.539603) can0 02000200#0000
(1699224079.549608) can0 02000200#0000
(1699224079.553789) can0 00E#5E8E13AB00000000
(1699224079.559647) can0 02000200#0000
(1699224079.569638) can0 02000200#0000
(1699224079.579659) can0 02000200#0000
(1699224079.589670) can0 02000200#0000
(1699224079.597568) can0 0C140000#02
(1699224079.599679) can0 02000200#0000
(1699224079.603891) can0 00E#5E8E13AB00000000
(1699224079.609697) can0 02000200#0000
(1699224079.619716) can0 02000200#0000
(1699224079.623205) can0 140C0101#0000
(1699224079.629755) can0 02000200#0000
(1699224079.630730) can0 03C30F0F#87878787878787
(1699224079.639740) can0 02000200#0000
(1699224079.649753) can0 02000200#0000
(1699224079.653945) can0 00E#5E8E13AB00000000
(1699224079.659770) can0 02000200#0000
(1699224079.669791) can0 02000200#0000
(1699224079.679804) can0 02000200#0000
(1699224079.689830) can0 02000200#0000
(1699224079.699836) can0 02000200#0000
(1699224079.704039) can0 00E#5E8E13AB00000000
(1699224079.709848) can0 02000200#0000
(1699224079.719867) can0 02000200#0000
(1699224079.729890) can0 02000200#0000
(1699224079.730888) can0 03C30F0F#87878787878787
(1699224079.739896) can0 02000200#0000
(1699224079.749915) can0 02000200#0000
(1699224079.754094) can0 00E#5E8E13AB00000000
(1699224079.759926) can0 02000200#0000
(1699224079.762999) can0 0C140100#C0
(1699224079.769949) can0 02000200#0000
(1699224079.779958) can0 02000200#0000
(1699224079.783071) can0 14300100#0000
(1699224079.789969) can0 02000200#0000
(1699224079.799983) can0 02000200#0000
(1699224079.804190) can0 00E#5E8E13AB00000000
(1699224079.810000) can0 02000200#0000
(1699224079.820021) can0 02000200#0000
(1699224079.830056) can0 02000200#0000
(1699224079.831047) can0 03C30F0F#87878787878787
(1699224079.840049) can0 02000200#0000
(1699224079.850062) can0 02000200#0000
(1699224079.854245) can0 00E#5E8E13AB00000000
(1699224079.860069) can0 02000200#0000
(1699224079.862929) can0 0C140100#C1
(1699224079.870100) can0 02000200#0000
(1699224079.873007) can0 140C0101#0000
(1699224079.880106) can0 02000200#0000
(1699224079.890149) can0 02000200#0000
(1699224079.900137) can0 02000200#0000
(1699224079.904346) can0 00E#5E8E13AB00000000
(1699224079.910183) can0 02000200#0000
(1699224079.920172) can0 02000200#0000
(1699224079.930194) can0 02000200#0000
(1699224079.931199) can0 03C30F0F#87878787878787
(1699224079.940192) can0 02000200#0000
(1699224079.950206) can0 02000200#0000
(1699224079.954388) can0 00E#5E8E13AB00000000
(1699224079.960237) can0 02000200#0000
(1699224079.970239) can0 02000200#0000
(1699224079.980266) can0 02000200#0000
(1699224079.990310) can0 02000200#0000
(1699224080.000336) can0 02000200#0000
(1699224080.004548) can0 00E#5E8E13AB00000000
(1699224080.010307) can0 02000200#0000
(1699224080.020319) can0 02000200#0000
(1699224080.030343) can0 02000200#0000
(1699224080.031347) can0 03C30F0F#87878787878787
(1699224080.032886) can0 14300100#0000
(1699224080.040354) can0 02000200#0000
(1699224080.050363) can0 02000200#0000
(1699224080.054545) can0 00E#5E8E13AB00000000
(1699224080.060377) can0 02000200#0000
(1699224080.070423) can0 02000200#0000
(1699224080.080450) can0 02000200#0000
(1699224080.090460) can0 02000200#0000
(1699224080.097102) can0 0C140000#03
(1699224080.100483) can0 02000200#0000
(1699224080.104645) can0 00E#5E8E13AB00000000
(1699224080.110451) can0 02000200#0000
(1699224080.120500) can0 02000200#0000
(1699224080.122725) can0 1C0C0100#64
(1699224080.123438) can0 140C0101#0000
(1699224080.130495) can0 02000200#0000
(1699224080.131503) can0 03C30F0F#87878787878787
(1699224080.140496) can0 02000200#0000
(1699224080.150528) can0 02000200#0000
(1699224080.154700) can0 00E#5E8E13AB00000000
(1699224080.160525) can0 02000200#0000
(1699224080.170540) can0 02000200#0000
(1699224080.180557) can0 02000200#0000
(1699224080.190572) can0 02000200#0000
(1699224080.200587) can0 02000200#0000
(1699224080.203170) can0 1C300104#F74E0200F74E0200
(1699224080.204809) can0 00E#5E8E13AB00000000
(1699224080.210611) can0 02000200#0000
(1699224080.220621) can0 02000200#0000
(1699224080.230653) can0 02000200#0000
(1699224080.231638) can0 03C30F0F#87878787878787
(1699224080.240650) can0 02000200#0000
(1699224080.250660) can0 02000200#0000
(1699224080.254846) can0 00E#5E8E13AB00000000
(1699224080.260676) can0 02000200#0000
(1699224080.270689) can0 02000200#0000
(1699224080.280709) can0 02000200#0000
(1699224080.282686) can0 14300100#0000
(1699224080.290754) can0 02000200#0000
(1699224080.300746) can0 02000200#0000
(1699224080.304942) can0 00E#5E8E13AB00000000
(1699224080.310750) can0 02000200#0000
(1699224080.320771) can0 02000200#0000
(1699224080.330798) can0 02000200#0000
(1699224080.331789) can0 03C30F0F#87878787878787
(1699224080.340797) can0 02000200#0000
(1699224080.350813) can0 02000200#0000
(1699224080.354995) can0 00E#5E8E13AB00000000
(1699224080.360830) can0 02000200#0000
(1699224080.370842) can0 02000200#0000
(1699224080.372623) can0 140C0101#0000
(1699224080.380858) can0 02000200#0000
(1699224080.390870) can0 02000200#0000
(1699224080.400889) can0 02000200#0000
(1699224080.405112) can0 00E#5E8E13AB00000000
(1699224080.410911) can0 02000200#0000
(1699224080.420921) can0 02000200#0000
(1699224080.430979) can0 02000200#0000
(1699224080.431977) can0 03C30F0F#87878787878787
(1699224080.440989) can0 02000200#0000
(1699224080.450985) can0 02000200#0000
(1699224080.455149) can0 00E#5E8E13AB00000000
(1699224080.460982) can0 02000200#0000
(1699224080.471030) can0 02000200#0000
(1699224080.481018) can0 02000200#0000
(1699224080.491054) can0 02000200#0000
(1699224080.501091) can0 02000200#0000
(1699224080.505293) can0 00E#5E8E13AB00000000
(1699224080.511111) can0 02000200#0000
(1699224080.521111) can0 02000200#0000
(1699224080.531133) can0 02000200#0000
(1699224080.532098) can0 03C30F0F#87878787878787
(1699224080.532812) can0 14300100#0000
(1699224080.541105) can0 02000200#0000
(1699224080.551117) can0 02000200#0000
(1699224080.555297) can0 00E#5E8E13AB00000000
(1699224080.561137) can0 02000200#0000
(1699224080.571149) can0 02000200#0000
(1699224080.581179) can0 02000200#0000
(1699224080.591175) can0 02000200#0000
(1699224080.596577) can0 0C140000#02
(1699224080.601189) can0 02000200#0000
(1699224080.605390) can0 00E#5E8E13AB00000000
(1699224080.611204) can0 02000200#0000
(1699224080.621216) can0 02000200#0000
(1699224080.622445) can0 140C0101#0000
(1699224080.631248) can0 02000200#0000
(1699224080.632257) can0 03C30F0F#87878787878787
(1699224080.641259) can0 02000200#0000
(1699224080.651264) can0 02000200#0000
(1699224080.655444) can0 00E#5E8E13AB00000000
(1699224080.661276) can0 02000200#0000
(1699224080.671297) can0 02000200#0000
(1699224080.681311) can0 02000200#0000
(1699224080.691356) can0 02000200#0000
(1699224080.701344) can0 02000200#0000
(1699224080.705550) can0 00E#5E8E13AB00000000
(1699224080.711359) can0 02000200#0000
(1699224080.721377) can0 02000200#0000
(1699224080.731396) can0 02000200#0000
(1699224080.732391) can0 03C30F0F#87878787878787
(1699224080.741396) can0 02000200#0000
(1699224080.751415) can0 02000200#0000
(1699224080.755606) can0 00E#5E8E13AB00000000
(1699224080.761426) can0 02000200#0000
(1699224080.762233) can0 0C140100#C0
(1699224080.771442) can0 02000200#0000
(1699224080.781480) can0 02000200#0000
(1699224080.782342) can0 14300100#0000
(1699224080.791471) can0 02000200#0000
(1699224080.801496) can0 02000200#0000
(1699224080.805693) can0 00E#5E8E13AB00000000
(1699224080.811504) can0 02000200#0000
(1699224080.821521) can0 02000200#0000
(1699224080.831554) can0 02000200#0000
(1699224080.832546) can0 03C30F0F#87878787878787
(1699224080.841552) can0 02000200#0000
(1699224080.851565) can0 02000200#0000
(1699224080.855747) can0 00E#5E8E13AB00000000
(1699224080.861581) can0 02000200#0000
(1699224080.862237) can0 0C140100#C1
(1699224080.871597) can0 02000200#0000
(1699224080.872317) can0 140C0101#0000
(1699224080.881633) can0 02000200#0000
(1699224080.891637) can0 02000200#0000
(1699224080.901658) can0 02000200#0000
(1699224080.905850) can0 00E#5E8E13AB00000000
(1699224080.911675) can0 02000200#0000
(1699224080.921677) can0 02000200#0000
(1699224080.931700) can0 02000200#0000
(1699224080.932691) can0 03C30F0F#87878787878787
(1699224080.941700) can0 02000200#0000
(1699224080.951716) can0 02000200#0000
(1699224080.955903) can0 00E#5E8E13AB00000000
(1699224080.961730) can0 02000200#0000
(1699224080.971745) can0 02000200#0000
(1699224080.981779) can0 02000200#0000
(1699224080.991799) can0 02000200#0000
(1699224081.001796) can0 02000200#0000
(1699224081.006002) can0 00E#5E8E13AB00000000
(1699224081.011859) can0 02000200#0000
(1699224081.021869) can0 02000200#0000
(1699224081.031869) can0 02000200#0000
(1699224081.032868) can0 03C30F0F#87878787878787
(1699224081.033566) can0 14300100#0000
(1699224081.041854) can0 02000200#0000
(1699224081.051875) can0 02000200#0000
(1699224081.056050) can0 00E#5E8E13AB00000000
(1699224081.061890) can0 02000200#0000
(1699224081.071910) can0 02000200#0000
(1699224081.072611) can0 062#40000000
(1699224081.073419) can0 061#52000002
(1699224081.074192) can0 061#60000000
(1699224081.074923) can0 061#70000009
(1699224081.075667) can0 061#80000010
(1699224081.076443) can0 062#00010000
(1699224081.077243) can0 061#12010002
(1699224081.096163) can0 0C140000#03
(1699224081.106143) can0 00E#5E8E13AB00000000
(1699224081.121977) can0 1C0C0100#64
(1699224081.122673) can0 140C0101#0000
(1699224081.132266) can0 03C30F0F#87878787878787
(1699224081.151786) can0 061#20010000
(1699224081.156202) can0 00E#5E8E13AB00000000
(1699224081.196786) can0 060#30010001
(1699224081.197623) can0 061#80010080
(1699224081.198894) can0 181C0200#0260000000000000
(1699224081.199594) can0 0C180000#0203
(1699224081.202093) can0 02000200#0000
(1699224081.206302) can0 00E#5E8E13AB00000000
(1699224081.212392) can0 1C300104#F74E0200F74E0200
(1699224081.213113) can0 02000200#0000
(1699224081.222126) can0 02000200#0000
(1699224081.232157) can0 02000200#0000
(1699224081.233152) can0 03C30F0F#87878787878787
(1699224081.242156) can0 02000200#0000
(1699224081.252175) can0 02000200#0000
(1699224081.256373) can0 00E#5E8E13AB00000000
(1699224081.262183) can0 02000200#0000
(1699224081.272196) can0 02000200#0000
(1699224081.281933) can0 14300100#0000
(1699224081.282653) can0 02000200#0000
(1699224081.292239) can0 02000200#0000
(1699224081.302253) can0 02000200#0000
(1699224081.306449) can0 00E#5E8E13AB00000000
(1699224081.312261) can0 02000200#0000
(1699224081.322294) can0 02000200#0000
(1699224081.332298) can0 02000200#0000
(1699224081.333297) can0 03C30F0F#87878787878787
(1699224081.342314) can0 02000200#0000
(1699224081.352325) can0 02000200#0000
(1699224081.356509) can0 00E#5E8E13AB00000000
(1699224081.362331) can0 02000200#0000
(1699224081.371865) can0 140C0101#0000
(1699224081.372582) can0 02000200#0000
(1699224081.382368) can0 02000200#0000
(1699224081.392382) can0 02000200#0000
(1699224081.402398) can0 02000200#0000
(1699224081.406601) can0 00E#5E8E13AB00000000
(1699224081.412451) can0 02000200#0000
(1699224081.422434) can0 02000200#0000
(1699224081.432540) can0 02000200#0000
(1699224081.433466) can0 03C30F0F#87878787878787
(1699224081.442475) can0 02000200#0000
(1699224081.446546) can0 0C180000#0202
(1699224081.452502) can0 02000200#0000
(1699224081.456658) can0 00E#5E8E13AB00000000
(1699224081.462488) can0 02000200#0000
(1699224081.472507) can0 02000200#0000
(1699224081.482530) can0 02000200#0000
(1699224081.492569) can0 02000200#0000
(1699224081.496633) can0 0C180001#220101
(1699224081.502555) can0 02000200#0000
(1699224081.506773) can0 00E#5E8E13AB00000000
(1699224081.512626) can0 02000200#0000
(1699224081.522599) can0 02000200#0000
(1699224081.531733) can0 14300100#0000
(1699224081.532603) can0 02000200#0000
(1699224081.533597) can0 03C30F0F#87878787878787
(1699224081.542604) can0 02000200#0000
(1699224081.546535) can0 0C180001#010101
(1699224081.552620) can0 02000200#0000
(1699224081.556807) can0 00E#5E8E13AB00000000
(1699224081.562632) can0 02000200#0000
(1699224081.572650) can0 02000200#0000
(1699224081.582671) can0 02000200#0000
(1699224081.592684) can0 02000200#0000
(1699224081.595592) can0 0C140000#02
(1699224081.597308) can0 0C180000#0201
(1699224081.602692) can0 02000200#0000
(1699224081.606903) can0 00E#5E8E13AB00000000
(1699224081.612709) can0 02000200#0000
(1699224081.621662) can0 140C0101#0000
(1699224081.622730) can0 02000200#0000
(1699224081.632760) can0 02000200#0000
(1699224081.633753) can0 03C30F0F#87878787878787
(1699224081.642758) can0 02000200#0000
(1699224081.652773) can0 02000200#0000
(1699224081.656955) can0 00E#5E8E13AB00000000
(1699224081.662781) can0 02000200#0000
(1699224081.672806) can0 02000200#0000
(1699224081.682820) can0 02000200#0000
(1699224081.692836) can0 02000200#0000
(1699224081.702852) can0 02000200#0000
(1699224081.707048) can0 00E#5E8E13AB00000000
(1699224081.712860) can0 02000200#0000
(1699224081.722874) can0 02000200#0000
(1699224081.732905) can0 02000200#0000
(1699224081.733901) can0 03C30F0F#87878787878787
(1699224081.742921) can0 02000200#0000
(1699224081.752925) can0 02000200#0000
(1699224081.757110) can0 00E#5E8E13AB00000000
(1699224081.761462) can0 0C140100#C0
(1699224081.762951) can0 02000200#0000
(1699224081.772950) can0 02000200#0000
(1699224081.781535) can0 14300100#0000
(1699224081.782961) can0 02000200#0000
(1699224081.792980) can0 02000200#0000
(1699224081.802993) can0 02000200#0000
(1699224081.807202) can0 00E#5E8E13AB00000000
(1699224081.813010) can0 02000200#0000
(1699224081.823027) can0 02000200#0000
(1699224081.833059) can0 02000200#0000
(1699224081.834052) can0 03C30F0F#87878787878787
(1699224081.843059) can0 02000200#0000
(1699224081.853072) can0 02000200#0000
(1699224081.857254) can0 00E#5E8E13AB00000000
(1699224081.861387) can0 0C140100#C1
(1699224081.863102) can0 02000200#0000
(1699224081.871482) can0 140C0101#0000
(1699224081.873107) can0 02000200#0000
(1699224081.883116) can0 02000200#0000
(1699224081.893159) can0 02000200#0000
(1699224081.903148) can0 02000200#0000
(1699224081.907355) can0 00E#5E8E13AB00000000
(1699224081.913180) can0 02000200#0000
(1699224081.923182) can0 02000200#0000
(1699224081.933205) can0 02000200#0000
(1699224081.934211) can0 03C30F0F#87878787878787
(1699224081.943223) can0 02000200#0000
(1699224081.953222) can0 02000200#0000
(1699224081.957410) can0 00E#5E8E13AB00000000
(1699224081.963235) can0 02000200#0000
(1699224081.973251) can0 02000200#0000
(1699224081.983273) can0 02000200#0000
(1699224081.993318) can0 02000200#0000
(1699224082.003341) can0 02000200#0000
(1699224082.007515) can0 00E#5E8E13AB00000000
(1699224082.013334) can0 02000200#0000
(1699224082.023329) can0 02000200#0000
(1699224082.031351) can0 14300100#0000
(1699224082.033361) can0 02000200#0000
(1699224082.034358) can0 03C30F0F#87878787878787
(1699224082.043360) can0 02000200#0000
(1699224082.053375) can0 02000200#0000
(1699224082.057557) can0 00E#5E8E13AB00000000
(1699224082.063412) can0 02000200#0000
(1699224082.073410) can0 02000200#0000
(1699224082.083420) can0 02000200#0000
(1699224082.093450) can0 02000200#0000
(1699224082.095120) can0 0C140000#03
(1699224082.103450) can0 02000200#0000
(1699224082.107659) can0 00E#5E8E13AB00000000
(1699224082.113466) can0 02000200#0000
(1699224082.121189) can0 1C0C0100#64
(1699224082.121921) can0 140C0101#0000
(1699224082.123480) can0 02000200#0000
(1699224082.133502) can0 02000200#0000
(1699224082.134498) can0 03C30F0F#87878787878787
(1699224082.143513) can0 02000200#0000
(1699224082.153528) can0 02000200#0000
(1699224082.157708) can0 00E#5E8E13AB00000000
(1699224082.163535) can0 02000200#0000
(1699224082.173552) can0 02000200#0000
(1699224082.183566) can0 02000200#0000
(1699224082.193599) can0 02000200#0000
(1699224082.203597) can0 02000200#0000
(1699224082.207805) can0 00E#5E8E13AB00000000
(1699224082.213611) can0 02000200#0000
(1699224082.221620) can0 1C300104#F74E0200F74E0200
(1699224082.223625) can0 02000200#0000
(1699224082.233657) can0 02000200#0000
(1699224082.234664) can0 03C30F0F#87878787878787
(1699224082.243658) can0 02000200#0000
(1699224082.253673) can0 02000200#0000
(1699224082.257855) can0 00E#5E8E13AB00000000
(1699224082.263689) can0 02000200#0000
(1699224082.273704) can0 02000200#0000
(1699224082.281155) can0 14300100#0000
(1699224082.283716) can0 02000200#0000
(1699224082.293762) can0 02000200#0000
(1699224082.303764) can0 02000200#0000
(1699224082.307962) can0 00E#5E8E13AB00000000
(1699224082.313766) can0 02000200#0000
(1699224082.323779) can0 02000200#0000
(1699224082.333814) can0 02000200#0000
(1699224082.334820) can0 03C30F0F#87878787878787
(1699224082.343813) can0 02000200#0000
(1699224082.353826) can0 02000200#0000
(1699224082.358011) can0 00E#5E8E13AB00000000
(1699224082.363842) can0 02000200#0000
(1699224082.371087) can0 140C0101#0000
(1699224082.373856) can0 02000200#0000
(1699224082.383875) can0 02000200#0000
(1699224082.393880) can0 02000200#0000
(1699224082.403895) can0 02000200#0000
(1699224082.408110) can0 00E#5E8E13AB00000000
(1699224082.413920) can0 02000200#0000
(1699224082.423932) can0 02000200#0000
(1699224082.434011) can0 02000200#0000
(1699224082.434968) can0 03C30F0F#87878787878787
(1699224082.444002) can0 02000200#0000
(1699224082.454014) can0 02000200#0000
(1699224082.458177) can0 00E#5E8E13AB00000000
(1699224082.463998) can0 02000200#0000
(1699224082.474023) can0 02000200#0000
(1699224082.484068) can0 02000200#0000
(1699224082.494073) can0 02000200#0000
(1699224082.504089) can0 02000200#0000
(1699224082.508266) can0 00E#5E8E13AB00000000
(1699224082.514065) can0 02000200#0000
(1699224082.524078) can0 02000200#0000
(1699224082.530971) can0 14300100#0000
(1699224082.534116) can0 02000200#0000
(1699224082.535105) can0 03C30F0F#87878787878787
(1699224082.544115) can0 02000200#0000
(1699224082.554127) can0 02000200#0000
(1699224082.558308) can0 00E#5E8E13AB00000000
(1699224082.564145) can0 02000200#0000
(1699224082.574159) can0 02000200#0000
(1699224082.584175) can0 02000200#0000
(1699224082.594198) can0 02000200#0000
(1699224082.594849) can0 0C140000#02
(1699224082.604232) can0 02000200#0000
(1699224082.608434) can0 00E#5E8E13AB00000000
(1699224082.614219) can0 02000200#0000
(1699224082.620896) can0 140C0101#0000
(1699224082.624229) can0 02000200#0000
(1699224082.634266) can0 02000200#0000
(1699224082.635255) can0 03C30F0F#87878787878787
(1699224082.644265) can0 02000200#0000
(1699224082.654283) can0 02000200#0000
(1699224082.658469) can0 00E#5E8E13AB00000000
(1699224082.664295) can0 02000200#0000
(1699224082.674311) can0 02000200#0000
(1699224082.684340) can0 02000200#0000
(1699224082.694355) can0 02000200#0000
(1699224082.704360) can0 02000200#0000
(1699224082.708562) can0 00E#5E8E13AB00000000
(1699224082.714373) can0 02000200#0000
(1699224082.724386) can0 02000200#0000
(1699224082.734413) can0 02000200#0000
(1699224082.735416) can0 03C30F0F#87878787878787
(1699224082.744443) can0 02000200#0000
(1699224082.754424) can0 02000200#0000
(1699224082.758617) can0 00E#5E8E13AB00000000
(1699224082.760694) can0 0C140100#C0
(1699224082.764467) can0 02000200#0000
(1699224082.774480) can0 02000200#0000
(1699224082.780777) can0 14300100#0000
(1699224082.784500) can0 02000200#0000
(1699224082.794486) can0 02000200#0000
(1699224082.804504) can0 02000200#0000
(1699224082.808724) can0 00E#5E8E13AB00000000
(1699224082.814516) can0 02000200#0000
(1699224082.824534) can0 02000200#0000
(1699224082.834569) can0 02000200#0000
(1699224082.835554) can0 03C30F0F#87878787878787
(1699224082.844563) can0 02000200#0000
(1699224082.854584) can0 02000200#0000
(1699224082.858763) can0 00E#5E8E13AB00000000
(1699224082.860617) can0 0C140100#C1
(1699224082.864592) can0 02000200#0000
(1699224082.870708) can0 140C0101#0000
(1699224082.874607) can0 02000200#0000
(1699224082.884629) can0 02000200#0000
(1699224082.894655) can0 02000200#0000
(1699224082.904661) can0 02000200#0000
(1699224082.908875) can0 00E#5E8E13AB00000000
(1699224082.914689) can0 02000200#0000
(1699224082.924688) can0 02000200#0000
(1699224082.934713) can0 02000200#0000
(1699224082.935704) can0 03C30F0F#87878787878787
(1699224082.944784) can0 02000200#0000
(1699224082.954777) can0 02000200#0000
(1699224082.959035) can0 00E#5E8E13AB00000000
(1699224082.964813) can0 02000200#0000
(1699224082.974832) can0 02000200#0000
(1699224082.984830) can0 02000200#0000
(1699224082.994829) can0 02000200#0000
(1699224083.004857) can0 02000200#0000
(1699224083.009050) can0 00E#5E8E13AB00000000
(1699224083.014867) can0 02000200#0000
(1699224083.024899) can0 02000200#0000
(1699224083.030667) can0 14300100#0000
(1699224083.034925) can0 02000200#0000
(1699224083.035890) can0 03C30F0F#87878787878787
(1699224083.044916) can0 02000200#0000
(1699224083.054953) can0 02000200#0000
(1699224083.059104) can0 00E#5E8E13AB00000000
(1699224083.064914) can0 02000200#0000
(1699224083.074917) can0 02000200#0000
(1699224083.084929) can0 02000200#0000
(1699224083.094154) can0 0C140000#03
(1699224083.094946) can0 02000200#0000
(1699224083.104963) can0 02000200#0000
(1699224083.109179) can0 00E#5E8E13AB00000000
(1699224083.114979) can0 02000200#0000
(1699224083.120446) can0 1C0C0100#64
(1699224083.121140) can0 140C0101#0000
(1699224083.124985) can0 02000200#0000
(1699224083.135016) can0 02000200#0000
(1699224083.136011) can0 03C30F0F#87878787878787
(1699224083.145017) can0 02000200#0000
(1699224083.155035) can0 02000200#0000
(1699224083.159214) can0 00E#5E8E13AB00000000
(1699224083.165047) can0 02000200#0000
(1699224083.175065) can0 02000200#0000
(1699224083.185084) can0 02000200#0000
(1699224083.195121) can0 02000200#0000
(1699224083.205110) can0 02000200#0000
(1699224083.209318) can0 00E#5E8E13AB00000000
(1699224083.215120) can0 02000200#0000
(1699224083.225139) can0 02000200#0000
(1699224083.230837) can0 1C300104#F74E0200F74E0200
(1699224083.235172) can0 02000200#0000
(1699224083.236162) can0 03C30F0F#87878787878787
(1699224083.245172) can0 02000200#0000
(1699224083.255186) can0 02000200#0000
(1699224083.259369) can0 00E#5E8E13AB00000000
(1699224083.265207) can0 02000200#0000
(1699224083.275217) can0 02000200#0000
(1699224083.280389) can0 14300100#0000
(1699224083.285273) can0 02000200#0000
(1699224083.295255) can0 02000200#0000
(1699224083.305264) can0 02000200#0000
(1699224083.309473) can0 00E#5E8E13AB00000000
(1699224083.315278) can0 02000200#0000
(1699224083.325301) can0 02000200#0000
(1699224083.325998) can0 062#40010000
(1699224083.326768) can0 061#52010002
(1699224083.327542) can0 061#60010000
(1699224083.335334) can0 02000200#0000
(1699224083.336312) can0 03C30F0F#87878787878787
(1699224083.344595) can0 060#70010009
(1699224083.345327) can0 02000200#0000
(1699224083.346009) can0 061#80010010
(1699224083.346744) can0 062#00000000
(1699224083.347558) can0 061#12000002
(1699224083.359518) can0 00E#5E8E13AB00000000
(1699224083.370327) can0 140C0101#0000
(1699224083.400056) can0 061#20000000
(1699224083.400837) can0 061#30000001
(1699224083.401618) can0 061#80000080
(1699224083.402323) can0 0C180100#0101
(1699224083.402972) can0 0A040200#64
(1699224083.404165) can0 181C0200#0260000000000000
(1699224083.405410) can0 02000200#0000
(1699224083.409618) can0 00E#5E8E13AB00000000
(1699224083.415448) can0 02000200#0000
(1699224083.425438) can0 02000200#0000
(1699224083.435504) can0 02000200#0000
(1699224083.436516) can0 03C30F0F#87878787878787
(1699224083.445474) can0 02000200#0000
(1699224083.455484) can0 02000200#0000
(1699224083.459674) can0 00E#5E8E13AB00000000
(1699224083.465501) can0 02000200#0000
(1699224083.475515) can0 02000200#0000
(1699224083.485550) can0 02000200#0000
(1699224083.495575) can0 02000200#0000
(1699224083.505597) can0 02000200#0000
(1699224083.509851) can0 00E#5E8E13AB00000000
(1699224083.515589) can0 02000200#0000
(1699224083.525595) can0 02000200#0000
(1699224083.530196) can0 14300100#0000
(1699224083.535622) can0 02000200#0000
(1699224083.536616) can0 03C30F0F#87878787878787
(1699224083.545624) can0 02000200#0000
(1699224083.555640) can0 02000200#0000
(1699224083.559820) can0 00E#5E8E13AB00000000
(1699224083.565658) can0 02000200#0000
(1699224083.575671) can0 02000200#0000
(1699224083.585686) can0 02000200#0000
(1699224083.593628) can0 0C140000#02
(1699224083.595692) can0 02000200#0000
(1699224083.605707) can0 02000200#0000
(1699224083.609923) can0 00E#5E8E13AB00000000
(1699224083.615723) can0 02000200#0000
(1699224083.620137) can0 140C0101#0000
(1699224083.625740) can0 02000200#0000
(1699224083.635770) can0 02000200#0000
(1699224083.636761) can0 03C30F0F#87878787878787
(1699224083.645768) can0 02000200#0000
(1699224083.655792) can0 02000200#0000
(1699224083.659968) can0 00E#5E8E13AB00000000
(1699224083.665813) can0 02000200#0000
(1699224083.675849) can0 02000200#0000
(1699224083.685842) can0 02000200#0000
(1699224083.695863) can0 02000200#0000
(1699224083.705873) can0 02000200#0000
(1699224083.710074) can0 00E#5E8E13AB00000000
(1699224083.715878) can0 02000200#0000
(1699224083.725919) can0 02000200#0000
(1699224083.735934) can0 02000200#0000
(1699224083.736917) can0 03C30F0F#87878787878787
(1699224083.745920) can0 02000200#0000
(1699224083.755937) can0 02000200#0000
(1699224083.760127) can0 00E#5E8E13AB00000000
(1699224083.760769) can0 0C140100#C0
(1699224083.765957) can0 02000200#0000
(1699224083.775967) can0 02000200#0000
(1699224083.780010) can0 14300100#0000
(1699224083.785980) can0 02000200#0000
(1699224083.796011) can0 02000200#0000
(1699224083.806019) can0 02000200#0000
(1699224083.810217) can0 00E#5E8E13AB00000000
(1699224083.816025) can0 02000200#0000
(1699224083.826043) can0 02000200#0000
(1699224083.836082) can0 02000200#0000
(1699224083.837067) can0 03C30F0F#87878787878787
(1699224083.846079) can0 02000200#0000
(1699224083.856096) can0 02000200#0000
(1699224083.859871) can0 0C140100#C1
(1699224083.860805) can0 00E#5E8E13AB00000000
(1699224083.866104) can0 02000200#0000
(1699224083.869941) can0 140C0101#0000
(1699224083.876119) can0 02000200#0000
(1699224083.886137) can0 02000200#0000
(1699224083.896155) can0 02000200#0000
(1699224083.906166) can0 02000200#0000
(1699224083.910375) can0 00E#5E8E13AB00000000
(1699224083.916198) can0 02000200#0000
(1699224083.926195) can0 02000200#0000
(1699224083.936224) can0 02000200#0000
(1699224083.937218) can0 03C30F0F#87878787878787
(1699224083.946222) can0 02000200#0000
(1699224083.956242) can0 02000200#0000
(1699224083.960441) can0 00E#5E8E13AB00000000
(1699224083.966254) can0 02000200#0000
(1699224083.976268) can0 02000200#0000
(1699224083.986301) can0 02000200#0000
(1699224083.996335) can0 02000200#0000
(1699224084.006367) can0 02000200#0000
(1699224084.010556) can0 00E#5E8E13AB00000000
(1699224084.016338) can0 02000200#0000
(1699224084.026351) can0 02000200#0000
(1699224084.029817) can0 14300100#0000
(1699224084.036370) can0 02000200#0000
(1699224084.037366) can0 03C30F0F#87878787878787
(1699224084.046371) can0 02000200#0000
(1699224084.056387) can0 02000200#0000
(1699224084.060621) can0 00E#5E8E13AB00000000
(1699224084.066449) can0 02000200#0000
(1699224084.076530) can0 02000200#0000
(1699224084.086510) can0 02000200#0000
(1699224084.093262) can0 0C140000#03
(1699224084.096558) can0 02000200#0000
(1699224084.106554) can0 02000200#0000
(1699224084.110730) can0 00E#5E8E13AB00000000
(1699224084.116576) can0 02000200#0000
(1699224084.119712) can0 1C0C0100#64
(1699224084.120478) can0 140C0101#0000
(1699224084.126550) can0 02000200#0000
(1699224084.136615) can0 02000200#0000
(1699224084.137592) can0 03C30F0F#87878787878787
(1699224084.146582) can0 02000200#0000
(1699224084.156602) can0 02000200#0000
(1699224084.160778) can0 00E#5E8E13AB00000000
(1699224084.166611) can0 02000200#0000
(1699224084.176638) can0 02000200#0000
(1699224084.186643) can0 02000200#0000
(1699224084.196681) can0 02000200#0000
(1699224084.206668) can0 02000200#0000
(1699224084.210885) can0 00E#5E8E13AB00000000
(1699224084.216698) can0 02000200#0000
(1699224084.226704) can0 02000200#0000
(1699224084.236730) can0 02000200#0000
(1699224084.237744) can0 03C30F0F#87878787878787
(1699224084.240146) can0 1C300104#F74E0200F74E0200
(1699224084.246733) can0 02000200#0000
(1699224084.256756) can0 02000200#0000
(1699224084.260930) can0 00E#5E8E13AB00000000
(1699224084.266770) can0 02000200#0000
(1699224084.276787) can0 02000200#0000
(1699224084.279690) can0 14300100#0000
(1699224084.286796) can0 02000200#0000
(1699224084.296859) can0 02000200#0000
(1699224084.306847) can0 02000200#0000
(1699224084.311052) can0 00E#5E8E13AB00000000
(1699224084.316858) can0 02000200#0000
(1699224084.326874) can0 02000200#0000
(1699224084.336901) can0 02000200#0000
(1699224084.337900) can0 03C30F0F#87878787878787
(1699224084.346899) can0 02000200#0000
(1699224084.356932) can0 02000200#0000
(1699224084.361099) can0 00E#5E8E13AB00000000
(1699224084.366944) can0 02000200#0000
(1699224084.369635) can0 140C0101#0000
(1699224084.376955) can0 02000200#0000
(1699224084.386971) can0 02000200#0000
(1699224084.397002) can0 02000200#0000
(1699224084.406973) can0 02000200#0000
(1699224084.411176) can0 00E#5E8E13AB00000000
(1699224084.416994) can0 02000200#0000
(1699224084.427009) can0 02000200#0000
(1699224084.437086) can0 02000200#0000
(1699224084.438037) can0 03C30F0F#87878787878787
(1699224084.447034) can0 02000200#0000
(1699224084.457053) can0 02000200#0000
(1699224084.461241) can0 00E#5E8E13AB00000000
(1699224084.467066) can0 02000200#0000
(1699224084.477077) can0 02000200#0000
(1699224084.487093) can0 02000200#0000
(1699224084.497176) can0 02000200#0000
(1699224084.507140) can0 02000200#0000
(1699224084.511361) can0 00E#5E8E13AB00000000
(1699224084.517200) can0 02000200#0000
(1699224084.527179) can0 02000200#0000
(1699224084.529505) can0 14300100#0000
(1699224084.537186) can0 02000200#0000
(1699224084.538182) can0 03C30F0F#87878787878787
(1699224084.547183) can0 02000200#0000
(1699224084.557204) can0 02000200#0000
(1699224084.561393) can0 00E#5E8E13AB00000000
(1699224084.567218) can0 02000200#0000
(1699224084.577239) can0 02000200#0000
(1699224084.587257) can0 02000200#0000
(1699224084.592684) can0 0C140000#02
(1699224084.597288) can0 02000200#0000
(1699224084.607279) can0 02000200#0000
(1699224084.611477) can0 00E#5E8E13AB00000000
(1699224084.617292) can0 02000200#0000
(1699224084.619419) can0 140C0101#0000
(1699224084.627335) can0 02000200#0000
(1699224084.637333) can0 02000200#0000
(1699224084.638327) can0 03C30F0F#87878787878787
(1699224084.647360) can0 02000200#0000
(1699224084.657348) can0 02000200#0000
(1699224084.661527) can0 00E#5E8E13AB00000000
(1699224084.667363) can0 02000200#0000
(1699224084.677378) can0 02000200#0000
(1699224084.687405) can0 02000200#0000
(1699224084.697484) can0 02000200#0000
(1699224084.707430) can0 02000200#0000
(1699224084.711635) can0 00E#5E8E13AB00000000
(1699224084.717442) can0 02000200#0000
(1699224084.727463) can0 02000200#0000
(1699224084.737482) can0 02000200#0000
(1699224084.738476) can0 03C30F0F#87878787878787
(1699224084.747489) can0 02000200#0000
(1699224084.757503) can0 02000200#0000
(1699224084.759221) can0 0C140100#C0
(1699224084.761686) can0 00E#5E8E13AB00000000
(1699224084.767526) can0 02000200#0000
(1699224084.777540) can0 02000200#0000
(1699224084.779300) can0 14300100#0000
(1699224084.787542) can0 02000200#0000
(1699224084.797615) can0 02000200#0000
(1699224084.807572) can0 02000200#0000
(1699224084.811790) can0 00E#5E8E13AB00000000
(1699224084.817614) can0 02000200#0000
(1699224084.827614) can0 02000200#0000
(1699224084.837645) can0 02000200#0000
(1699224084.838630) can0 03C30F0F#87878787878787
(1699224084.847646) can0 02000200#0000
(1699224084.857656) can0 02000200#0000
(1699224084.859147) can0 0C140100#C1
(1699224084.861857) can0 00E#5E8E13AB00000000
(1699224084.867668) can0 02000200#0000
(1699224084.869276) can0 140C0101#0000
(1699224084.877679) can0 02000200#0000
(1699224084.887698) can0 02000200#0000
(1699224084.897779) can0 02000200#0000
(1699224084.907726) can0 02000200#0000
(1699224084.911933) can0 00E#5E8E13AB00000000
(1699224084.917753) can0 02000200#0000
(1699224084.927761) can0 02000200#0000
(1699224084.937779) can0 02000200#0000
(1699224084.938800) can0 03C30F0F#87878787878787
(1699224084.947785) can0 02000200#0000
(1699224084.957802) can0 02000200#0000
(1699224084.961984) can0 00E#5E8E13AB00000000
(1699224084.967822) can0 02000200#0000
(1699224084.977838) can0 02000200#0000
(1699224084.987854) can0 02000200#0000
(1699224084.997914) can0 02000200#0000
(1699224085.007946) can0 02000200#0000
(1699224085.012129) can0 00E#5E8E13AB00000000
(1699224085.017895) can0 02000200#0000
(1699224085.027916) can0 02000200#0000
(1699224085.029112) can0 14300100#0000
(1699224085.037935) can0 02000200#0000
(1699224085.038931) can0 03C30F0F#87878787878787
(1699224085.047941) can0 02000200#0000
(1699224085.057951) can0 02000200#0000
(1699224085.062135) can0 00E#5E8E13AB00000000
(1699224085.068013) can0 02000200#0000
(1699224085.078025) can0 02000200#0000
(1699224085.088004) can0 02000200#0000
(1699224085.092255) can0 0C140000#03
(1699224085.098077) can0 02000200#0000
(1699224085.108027) can0 02000200#0000
(1699224085.112260) can0 00E#5E8E13AB00000000
(1699224085.118045) can0 02000200#0000
(1699224085.118947) can0 1C0C0100#64
(1699224085.119674) can0 140C0101#0000
(1699224085.128080) can0 02000200#0000
(1699224085.138094) can0 02000200#0000
(1699224085.139086) can0 03C30F0F#87878787878787
(1699224085.148090) can0 02000200#0000
(1699224085.158102) can0 02000200#0000
(1699224085.162284) can0 00E#5E8E13AB00000000
(1699224085.168119) can0 02000200#0000
(1699224085.178153) can0 02000200#0000
(1699224085.188154) can0 02000200#0000
(1699224085.198213) can0 02000200#0000
(1699224085.208186) can0 02000200#0000
(1699224085.212402) can0 00E#5E8E13AB00000000
(1699224085.218211) can0 02000200#0000
(1699224085.228216) can0 02000200#0000
(1699224085.238242) can0 02000200#0000
(1699224085.239234) can0 03C30F0F#87878787878787
(1699224085.248239) can0 02000200#0000
(1699224085.249405) can0 1C300104#F74E0200F74E0200
(1699224085.258261) can0 02000200#0000
(1699224085.262437) can0 00E#5E8E13AB00000000
(1699224085.268289) can0 02000200#0000
(1699224085.278286) can0 02000200#0000
(1699224085.279028) can0 14300100#0000
(1699224085.288305) can0 02000200#0000
(1699224085.298362) can0 02000200#0000
(1699224085.308342) can0 02000200#0000
(1699224085.312541) can0 00E#5E8E13AB00000000
(1699224085.318374) can0 02000200#0000
(1699224085.328365) can0 02000200#0000
(1699224085.338387) can0 02000200#0000
(1699224085.339402) can0 03C30F0F#87878787878787
(1699224085.348386) can0 02000200#0000
(1699224085.358411) can0 02000200#0000
(1699224085.362596) can0 00E#5E8E13AB00000000
(1699224085.368457) can0 02000200#0000
(1699224085.369151) can0 140C0101#0000
(1699224085.378460) can0 02000200#0000
(1699224085.388489) can0 02000200#0000
(1699224085.398492) can0 02000200#0000
(1699224085.408529) can0 02000200#0000
(1699224085.412689) can0 00E#5E8E13AB00000000
(1699224085.418566) can0 02000200#0000
(1699224085.428572) can0 02000200#0000
(1699224085.438597) can0 02000200#0000
(1699224085.439561) can0 03C30F0F#87878787878787
(1699224085.448581) can0 02000200#0000
(1699224085.458557) can0 02000200#0000
(1699224085.462744) can0 00E#5E8E13AB00000000
(1699224085.468570) can0 02000200#0000
(1699224085.478593) can0 02000200#0000
(1699224085.488613) can0 02000200#0000
(1699224085.498686) can0 02000200#0000
(1699224085.508654) can0 02000200#0000
(1699224085.512883) can0 00E#5E8E13AB00000000
(1699224085.518708) can0 02000200#0000
(1699224085.528700) can0 02000200#0000
(1699224085.529425) can0 14300100#0000
(1699224085.538697) can0 02000200#0000
(1699224085.539691) can0 03C30F0F#87878787878787
(1699224085.548694) can0 02000200#0000
(1699224085.558714) can0 02000200#0000
(1699224085.562894) can0 00E#5E8E13AB00000000
(1699224085.568728) can0 02000200#0000
(1699224085.578751) can0 02000200#0000
(1699224085.588790) can0 02000200#0000
(1699224085.591693) can0 0C140000#02
(1699224085.598785) can0 02000200#0000
(1699224085.608787) can0 02000200#0000
(1699224085.612996) can0 00E#5E8E13AB00000000
(1699224085.618662) can0 140C0101#0000
(1699224085.619378) can0 02000200#0000
(1699224085.628814) can0 02000200#0000
(1699224085.638852) can0 02000200#0000
(1699224085.639840) can0 03C30F0F#87878787878787
(1699224085.648844) can0 02000200#0000
(1699224085.658858) can0 02000200#0000
(1699224085.663042) can0 00E#5E8E13AB00000000
(1699224085.668873) can0 02000200#0000
(1699224085.678893) can0 02000200#0000
(1699224085.688909) can0 02000200#0000
(1699224085.698950) can0 02000200#0000
(1699224085.708970) can0 02000200#0000
(1699224085.713139) can0 00E#5E8E13AB00000000
(1699224085.718976) can0 02000200#0000
(1699224085.728964) can0 02000200#0000
(1699224085.738993) can0 02000200#0000
(1699224085.739989) can0 03C30F0F#87878787878787
(1699224085.748997) can0 02000200#0000
(1699224085.758459) can0 0C140100#C0
(1699224085.759168) can0 02000200#0000
(1699224085.763205) can0 00E#5E8E13AB00000000
(1699224085.769027) can0 02000200#0000
(1699224085.778530) can0 14300100#0000
(1699224085.779254) can0 02000200#0000
(1699224085.789079) can0 02000200#0000
(1699224085.799110) can0 02000200#0000
(1699224085.809094) can0 02000200#0000
(1699224085.813291) can0 00E#5E8E13AB00000000
(1699224085.819103) can0 02000200#0000
(1699224085.829119) can0 02000200#0000
(1699224085.839169) can0 02000200#0000
(1699224085.840217) can0 03C30F0F#87878787878787
(1699224085.849151) can0 02000200#0000
(1699224085.858381) can0 0C140100#C1
(1699224085.859164) can0 02000200#0000
(1699224085.863336) can0 00E#5E8E13AB00000000
(1699224085.868519) can0 140C0101#0000
(1699224085.869208) can0 02000200#0000
(1699224085.879195) can0 02000200#0000
(1699224085.889205) can0 02000200#0000
(1699224085.899258) can0 02000200#0000
(1699224085.909234) can0 02000200#0000
(1699224085.913442) can0 00E#5E8E13AB00000000
(1699224085.919282) can0 02000200#0000
(1699224085.929276) can0 02000200#0000
(1699224085.939298) can0 02000200#0000
(1699224085.940288) can0 03C30F0F#87878787878787
(1699224085.949307) can0 02000200#0000
(1699224085.959311) can0 02000200#0000
(1699224085.963498) can0 00E#5E8E13AB00000000
(1699224085.969322) can0 02000200#0000
(1699224085.979351) can0 02000200#0000
(1699224085.989355) can0 02000200#0000
(1699224085.999436) can0 02000200#0000
(1699224086.009400) can0 02000200#0000
(1699224086.013626) can0 00E#5E8E13AB00000000
(1699224086.019462) can0 02000200#0000
(1699224086.028376) can0 14300100#0000
(1699224086.029444) can0 02000200#0000
(1699224086.039454) can0 02000200#0000
(1699224086.040464) can0 03C30F0F#87878787878787
(1699224086.049447) can0 02000200#0000
(1699224086.059482) can0 02000200#0000
(1699224086.063652) can0 00E#5E8E13AB00000000
(1699224086.069477) can0 02000200#0000
(1699224086.079511) can0 02000200#0000
(1699224086.089527) can0 02000200#0000
(1699224086.091234) can0 0C140000#03
(1699224086.099590) can0 02000200#0000
(1699224086.109537) can0 02000200#0000
(1699224086.113740) can0 00E#5E8E13AB00000000
(1699224086.118208) can0 1C0C0100#64
(1699224086.118902) can0 140C0101#0000
(1699224086.119623) can0 02000200#0000
(1699224086.129570) can0 02000200#0000
(1699224086.139591) can0 02000200#0000
(1699224086.140589) can0 03C30F0F#87878787878787
(1699224086.149589) can0 02000200#0000
(1699224086.159609) can0 02000200#0000
(1699224086.163790) can0 00E#5E8E13AB00000000
(1699224086.169625) can0 02000200#0000
(1699224086.179638) can0 02000200#0000
(1699224086.189653) can0 02000200#0000
(1699224086.199716) can0 02000200#0000
(1699224086.209723) can0 02000200#0000
(1699224086.213919) can0 00E#5E8E13AB00000000
(1699224086.219720) can0 02000200#0000
(1699224086.229742) can0 02000200#0000
(1699224086.239772) can0 02000200#0000
(1699224086.240768) can0 03C30F0F#87878787878787
(1699224086.249778) can0 02000200#0000
(1699224086.258608) can0 1C300104#F74E0200F74E0200
(1699224086.259813) can0 02000200#0000
(1699224086.263965) can0 00E#5E8E13AB00000000
(1699224086.269799) can0 02000200#0000
(1699224086.278178) can0 14300100#0000
(1699224086.279811) can0 02000200#0000
(1699224086.289829) can0 02000200#0000
(1699224086.299885) can0 02000200#0000
(1699224086.309844) can0 02000200#0000
(1699224086.314048) can0 00E#5E8E13AB00000000
(1699224086.319885) can0 02000200#0000
(1699224086.329868) can0 02000200#0000
(1699224086.339898) can0 02000200#0000
(1699224086.340897) can0 03C30F0F#87878787878787
(1699224086.349897) can0 02000200#0000
(1699224086.359911) can0 02000200#0000
(1699224086.364107) can0 00E#5E8E13AB00000000
(1699224086.368079) can0 140C0101#0000
(1699224086.369928) can0 02000200#0000
(1699224086.379950) can0 02000200#0000
(1699224086.389963) can0 02000200#0000
(1699224086.399993) can0 02000200#0000
(1699224086.409981) can0 02000200#0000
(1699224086.414206) can0 00E#5E8E13AB00000000
(1699224086.420007) can0 02000200#0000
(1699224086.430025) can0 02000200#0000
(1699224086.440105) can0 02000200#0000
(1699224086.441065) can0 03C30F0F#87878787878787
(1699224086.450074) can0 02000200#0000
(1699224086.460062) can0 02000200#0000
(1699224086.464255) can0 00E#5E8E13AB00000000
(1699224086.470090) can0 02000200#0000
(1699224086.480093) can0 02000200#0000
(1699224086.490111) can0 02000200#0000
(1699224086.500212) can0 02000200#0000
(1699224086.510152) can0 02000200#0000
(1699224086.514394) can0 00E#5E8E13AB00000000
(1699224086.520196) can0 02000200#0000
(1699224086.527971) can0 14300100#0000
(1699224086.530169) can0 02000200#0000
(1699224086.540224) can0 02000200#0000
(1699224086.541187) can0 03C30F0F#87878787878787
(1699224086.550206) can0 02000200#0000
(1699224086.560221) can0 02000200#0000
(1699224086.564401) can0 00E#5E8E13AB00000000
(1699224086.570229) can0 02000200#0000
(1699224086.580244) can0 02000200#0000
(1699224086.590265) can0 02000200#0000
(1699224086.590942) can0 0C140000#02
(1699224086.600287) can0 02000200#0000
(1699224086.610288) can0 02000200#0000
(1699224086.614497) can0 00E#5E8E13AB00000000
(1699224086.617907) can0 140C0101#0000
(1699224086.620304) can0 02000200#0000
(1699224086.630321) can0 02000200#0000
(1699224086.640355) can0 02000200#0000
(1699224086.641346) can0 03C30F0F#87878787878787
(1699224086.650361) can0 02000200#0000
(1699224086.660366) can0 02000200#0000
(1699224086.664583) can0 00E#5E8E13AB00000000
(1699224086.670390) can0 02000200#0000
(1699224086.680399) can0 02000200#0000
(1699224086.690423) can0 02000200#0000
(1699224086.700511) can0 02000200#0000
(1699224086.710443) can0 02000200#0000
(1699224086.714643) can0 00E#5E8E13AB00000000
(1699224086.720493) can0 02000200#0000
(1699224086.730472) can0 02000200#0000
(1699224086.740533) can0 02000200#0000
(1699224086.741503) can0 03C30F0F#87878787878787
(1699224086.750500) can0 02000200#0000
(1699224086.757687) can0 0C140100#C0
(1699224086.760548) can0 02000200#0000
(1699224086.764698) can0 00E#5E8E13AB00000000
(1699224086.770526) can0 02000200#0000
(1699224086.777763) can0 14300100#0000
(1699224086.780546) can0 02000200#0000
(1699224086.790590) can0 02000200#0000
(1699224086.800610) can0 02000200#0000
(1699224086.810632) can0 02000200#0000
(1699224086.814823) can0 00E#5E8E13AB00000000
(1699224086.820632) can0 02000200#0000
(1699224086.830645) can0 02000200#0000
(1699224086.840669) can0 02000200#0000
(1699224086.841658) can0 03C30F0F#87878787878787
(1699224086.850701) can0 02000200#0000
(1699224086.857643) can0 0C140100#C1
(1699224086.860681) can0 02000200#0000
(1699224086.864865) can0 00E#5E8E13AB00000000
(1699224086.867719) can0 140C0101#0000
(1699224086.870706) can0 02000200#0000
(1699224086.880723) can0 02000200#0000
(1699224086.890737) can0 02000200#0000
(1699224086.900814) can0 02000200#0000
(1699224086.910763) can0 02000200#0000
(1699224086.914976) can0 00E#5E8E13AB00000000
(1699224086.920785) can0 02000200#0000
(1699224086.930803) can0 02000200#0000
(1699224086.940823) can0 02000200#0000
(1699224086.941846) can0 03C30F0F#87878787878787
(1699224086.950823) can0 02000200#0000
(1699224086.960848) can0 02000200#0000
(1699224086.965022) can0 00E#5E8E13AB00000000
(1699224086.970863) can0 02000200#0000
(1699224086.980881) can0 02000200#0000
(1699224086.990886) can0 02000200#0000
(1699224087.000972) can0 02000200#0000
(1699224087.010943) can0 02000200#0000
(1699224087.015176) can0 00E#5E8E13AB00000000
(1699224087.020960) can0 02000200#0000
(1699224087.027587) can0 14300100#0000
(1699224087.030935) can0 02000200#0000
(1699224087.040951) can0 02000200#0000
(1699224087.041948) can0 03C30F0F#87878787878787
(1699224087.050963) can0 02000200#0000
(1699224087.061002) can0 02000200#0000
(1699224087.065176) can0 00E#5E8E13AB00000000
(1699224087.070991) can0 02000200#0000
(1699224087.081007) can0 02000200#0000
(1699224087.090277) can0 0C140000#03
(1699224087.091033) can0 02000200#0000
(1699224087.101086) can0 02000200#0000
(1699224087.111050) can0 02000200#0000
(1699224087.115254) can0 00E#5E8E13AB00000000
(1699224087.117413) can0 1C0C0100#64
(1699224087.118140) can0 140C0101#0000
(1699224087.121057) can0 02000200#0000
(1699224087.131068) can0 02000200#0000
(1699224087.141112) can0 02000200#0000
(1699224087.142093) can0 03C30F0F#87878787878787
(1699224087.151104) can0 02000200#0000
(1699224087.161126) can0 02000200#0000
(1699224087.165302) can0 00E#5E8E13AB00000000
(1699224087.171139) can0 02000200#0000
(1699224087.181152) can0 02000200#0000
(1699224087.191191) can0 02000200#0000
(1699224087.201202) can0 02000200#0000
(1699224087.211198) can0 02000200#0000
(1699224087.215405) can0 00E#5E8E13AB00000000
(1699224087.221204) can0 02000200#0000
(1699224087.231222) can0 02000200#0000
(1699224087.241279) can0 02000200#0000
(1699224087.242255) can0 03C30F0F#87878787878787
(1699224087.251252) can0 02000200#0000
(1699224087.261267) can0 02000200#0000
(1699224087.265450) can0 00E#5E8E13AB00000000
(1699224087.267807) can0 1C300104#F74E0200F74E0200
(1699224087.271284) can0 02000200#0000
(1699224087.277394) can0 14300100#0000
(1699224087.281293) can0 02000200#0000
(1699224087.291347) can0 02000200#0000
(1699224087.301410) can0 02000200#0000
(1699224087.311374) can0 02000200#0000
(1699224087.315554) can0 00E#5E8E13AB00000000
(1699224087.321367) can0 02000200#0000
(1699224087.331384) can0 02000200#0000
(1699224087.341400) can0 02000200#0000
(1699224087.342392) can0 03C30F0F#87878787878787
(1699224087.351404) can0 02000200#0000
(1699224087.361433) can0 02000200#0000
(1699224087.365603) can0 00E#5E8E13AB00000000
(1699224087.367315) can0 140C0101#0000
(1699224087.371430) can0 02000200#0000
(1699224087.381456) can0 02000200#0000
(1699224087.391464) can0 02000200#0000
(1699224087.401508) can0 02000200#0000
(1699224087.411496) can0 02000200#0000
(1699224087.415702) can0 00E#5E8E13AB00000000
(1699224087.421532) can0 02000200#0000
(1699224087.431534) can0 02000200#0000
(1699224087.441595) can0 02000200#0000
(1699224087.442576) can0 03C30F0F#87878787878787
(1699224087.451609) can0 02000200#0000
(1699224087.461601) can0 02000200#0000
(1699224087.465750) can0 00E#5E8E13AB00000000
(1699224087.471586) can0 02000200#0000
(1699224087.481661) can0 02000200#0000
(1699224087.491647) can0 02000200#0000
(1699224087.501744) can0 02000200#0000
(1699224087.511731) can0 02000200#0000
(1699224087.515903) can0 00E#5E8E13AB00000000
(1699224087.521670) can0 02000200#0000
(1699224087.527196) can0 14300100#0000
(1699224087.531672) can0 02000200#0000
(1699224087.541705) can0 02000200#0000
(1699224087.542695) can0 03C30F0F#87878787878787
(1699224087.551706) can0 02000200#0000
(1699224087.561720) can0 02000200#0000
(1699224087.565920) can0 00E#5E8E13AB00000000
(1699224087.571748) can0 02000200#0000
(1699224087.581758) can0 02000200#0000
(1699224087.589716) can0 0C140000#02
(1699224087.591766) can0 02000200#0000
(1699224087.601844) can0 02000200#0000
(1699224087.611803) can0 02000200#0000
(1699224087.616010) can0 00E#5E8E13AB00000000
(1699224087.617120) can0 140C0101#0000
(1699224087.621818) can0 02000200#0000
(1699224087.631836) can0 02000200#0000
(1699224087.641851) can0 02000200#0000
(1699224087.642853) can0 03C30F0F#87878787878787
(1699224087.651867) can0 02000200#0000
(1699224087.661912) can0 02000200#0000
(1699224087.666061) can0 00E#5E8E13AB00000000
(1699224087.671885) can0 02000200#0000
(1699224087.681908) can0 02000200#0000
(1699224087.691915) can0 02000200#0000
(1699224087.702000) can0 02000200#0000
(1699224087.711972) can0 02000200#0000
(1699224087.716152) can0 00E#5E8E13AB00000000
(1699224087.721972) can0 02000200#0000
(1699224087.731984) can0 02000200#0000
(1699224087.742009) can0 02000200#0000
(1699224087.743002) can0 03C30F0F#87878787878787
(1699224087.752020) can0 02000200#0000
(1699224087.756927) can0 0C140100#C0
(1699224087.762018) can0 02000200#0000
(1699224087.766203) can0 00E#5E8E13AB00000000
(1699224087.772037) can0 02000200#0000
(1699224087.777001) can0 14300100#0000
(1699224087.782047) can0 02000200#0000
(1699224087.792074) can0 02000200#0000
(1699224087.802103) can0 02000200#0000
(1699224087.812098) can0 02000200#0000
(1699224087.816305) can0 00E#5E8E13AB00000000
(1699224087.822106) can0 02000200#0000
(1699224087.832132) can0 02000200#0000
(1699224087.842161) can0 02000200#0000
(1699224087.843160) can0 03C30F0F#87878787878787
(1699224087.852159) can0 02000200#0000
(1699224087.856851) can0 0C140100#C1
(1699224087.862209) can0 02000200#0000
(1699224087.866354) can0 00E#5E8E13AB00000000
(1699224087.867094) can0 140C0101#0000
(1699224087.872182) can0 02000200#0000
(1699224087.882200) can0 02000200#0000
(1699224087.892219) can0 02000200#0000
(1699224087.902313) can0 02000200#0000
(1699224087.912256) can0 02000200#0000
(1699224087.916488) can0 00E#5E8E13AB00000000
(1699224087.922274) can0 02000200#0000
(1699224087.932283) can0 02000200#0000
(1699224087.942302) can0 02000200#0000
(1699224087.943321) can0 03C30F0F#87878787878787
(1699224087.952313) can0 02000200#0000
(1699224087.962348) can0 02000200#0000
(1699224087.966509) can0 00E#5E8E13AB00000000
(1699224087.972342) can0 02000200#0000
(1699224087.982361) can0 02000200#0000
(1699224087.992377) can0 02000200#0000
(1699224088.002428) can0 02000200#0000
(1699224088.012481) can0 02000200#0000
(1699224088.016692) can0 00E#5E8E13AB00000000
(1699224088.022463) can0 02000200#0000
(1699224088.026819) can0 14300100#0000
(1699224088.032488) can0 02000200#0000
(1699224088.042466) can0 02000200#0000
(1699224088.043473) can0 03C30F0F#87878787878787
(1699224088.052520) can0 02000200#0000
(1699224088.062511) can0 02000200#0000
(1699224088.066655) can0 00E#5E8E13AB00000000
(1699224088.072534) can0 02000200#0000
(1699224088.082521) can0 02000200#0000
(1699224088.089253) can0 0C140000#03
(1699224088.092563) can0 02000200#0000
(1699224088.102588) can0 02000200#0000
(1699224088.112557) can0 02000200#0000
(1699224088.116758) can0 00E#5E8E13AB00000000
(1699224088.117495) can0 140C0101#0000
(1699224088.118118) can0 1C0C0100#64
(1699224088.122567) can0 02000200#0000
(1699224088.132594) can0 02000200#0000
(1699224088.142620) can0 02000200#0000
(1699224088.143613) can0 03C30F0F#87878787878787
(1699224088.152622) can0 02000200#0000
(1699224088.162627) can0 02000200#0000
(1699224088.166801) can0 00E#5E8E13AB00000000
(1699224088.172671) can0 02000200#0000
(1699224088.182682) can0 02000200#0000
(1699224088.192671) can0 02000200#0000
(1699224088.202703) can0 02000200#0000
(1699224088.212705) can0 02000200#0000
(1699224088.216934) can0 00E#5E8E13AB00000000
(1699224088.222727) can0 02000200#0000
(1699224088.232733) can0 02000200#0000
(1699224088.242759) can0 02000200#0000
(1699224088.243749) can0 03C30F0F#87878787878787
(1699224088.252775) can0 02000200#0000
(1699224088.262773) can0 02000200#0000
(1699224088.266962) can0 00E#5E8E13AB00000000
(1699224088.272789) can0 02000200#0000
(1699224088.276617) can0 14300100#0000
(1699224088.277719) can0 1C300104#F74E0200F74E0200
(1699224088.282810) can0 02000200#0000
(1699224088.292825) can0 02000200#0000
(1699224088.302895) can0 02000200#0000
(1699224088.312862) can0 02000200#0000
(1699224088.317065) can0 00E#5E8E13AB00000000
(1699224088.322864) can0 02000200#0000
(1699224088.332881) can0 02000200#0000
(1699224088.342915) can0 02000200#0000
(1699224088.343905) can0 03C30F0F#87878787878787
(1699224088.352914) can0 02000200#0000
(1699224088.362935) can0 02000200#0000
(1699224088.366559) can0 140C0101#0000
(1699224088.367497) can0 00E#5E8E13AB00000000
(1699224088.372942) can0 02000200#0000
(1699224088.382955) can0 02000200#0000
(1699224088.392984) can0 02000200#0000
(1699224088.403009) can0 02000200#0000
(1699224088.413004) can0 02000200#0000
(1699224088.417212) can0 00E#5E8E13AB00000000
(1699224088.423033) can0 02000200#0000
(1699224088.433073) can0 02000200#0000
(1699224088.443140) can0 02000200#0000
(1699224088.443786) can0 062#40000000
(1699224088.444785) can0 03C30F0F#87878787878787
(1699224088.445465) can0 061#52000002
(1699224088.446297) can0 061#60000000
(1699224088.447088) can0 061#70000009
(1699224088.447881) can0 061#80000010
(1699224088.448612) can0 062#00010000
(1699224088.449424) can0 061#12010002
(1699224088.467259) can0 00E#5E8E13AB00000000
(1699224088.517415) can0 00E#5E8E13AB00000000
(1699224088.526463) can0 14300100#0000
(1699224088.543481) can0 03C30F0F#87878787878787
(1699224088.546166) can0 061#20010000
(1699224088.567415) can0 00E#5E8E13AB00000000
(1699224088.588746) can0 0C140000#02
(1699224088.590325) can0 060#30010001
(1699224088.591161) can0 061#80010080
(1699224088.592481) can0 181C0200#0260000000000000
(1699224088.593166) can0 0C180000#0203
(1699224088.593923) can0 02000200#0000
(1699224088.603327) can0 02000200#0000
(1699224088.613373) can0 02000200#0000
(1699224088.616469) can0 140C0101#0000
(1699224088.617665) can0 00E#5E8E13AB00000000
(1699224088.623330) can0 02000200#0000
(1699224088.633337) can0 02000200#0000
(1699224088.643373) can0 02000200#0000
(1699224088.644369) can0 03C30F0F#87878787878787
(1699224088.653371) can0 02000200#0000
(1699224088.663382) can0 02000200#0000
(1699224088.667608) can0 00E#5E8E13AB00000000
(1699224088.673407) can0 02000200#0000
(1699224088.683431) can0 02000200#0000
(1699224088.693430) can0 02000200#0000
(1699224088.703479) can0 02000200#0000
(1699224088.713486) can0 02000200#0000
(1699224088.717684) can0 00E#5E8E13AB00000000
(1699224088.723476) can0 02000200#0000
(1699224088.733486) can0 02000200#0000
(1699224088.737337) can0 1C240201#
(1699224088.743514) can0 02000200#0000
(1699224088.744546) can0 03C30F0F#87878787878787
(1699224088.753517) can0 02000200#0000
(1699224088.756171) can0 0C140100#C0
(1699224088.763532) can0 02000200#0000
(1699224088.767712) can0 00E#5E8E13AB00000000
(1699224088.773544) can0 02000200#0000
(1699224088.776243) can0 14300100#0000
(1699224088.783555) can0 02000200#0000
(1699224088.793571) can0 02000200#0000
(1699224088.803612) can0 02000200#0000
(1699224088.813630) can0 02000200#0000
(1699224088.817825) can0 00E#5E8E13AB00000000
(1699224088.823617) can0 02000200#0000
(1699224088.833637) can0 02000200#0000
(1699224088.839274) can0 0C180000#0202
(1699224088.843663) can0 02000200#0000
(1699224088.844682) can0 03C30F0F#87878787878787
(1699224088.853688) can0 02000200#0000
(1699224088.856100) can0 0C140100#C1
(1699224088.863683) can0 02000200#0000
(1699224088.866166) can0 140C0101#0000
(1699224088.867893) can0 00E#5E8E13AB00000000
(1699224088.873689) can0 02000200#0000
(1699224088.883717) can0 02000200#0000
(1699224088.889373) can0 0C180001#220101
(1699224088.893735) can0 02000200#0000
(1699224088.903786) can0 02000200#0000
(1699224088.913785) can0 02000200#0000
(1699224088.917974) can0 00E#5E8E13AB00000000
(1699224088.923775) can0 02000200#0000
(1699224088.933778) can0 02000200#0000
(1699224088.939282) can0 0C180001#010101
(1699224088.943818) can0 02000200#0000
(1699224088.944819) can0 03C30F0F#87878787878787
(1699224088.953817) can0 02000200#0000
(1699224088.963842) can0 02000200#0000
(1699224088.968037) can0 00E#5E8E13AB00000000
(1699224088.973844) can0 02000200#0000
(1699224088.983864) can0 02000200#0000
(1699224088.989206) can0 0C180000#0201
(1699224088.993875) can0 02000200#0000
(1699224089.003893) can0 02000200#0000
(1699224089.013926) can0 02000200#0000
(1699224089.018117) can0 00E#5E8E13AB00000000
(1699224089.023943) can0 02000200#0000
(1699224089.026078) can0 14300100#0000
(1699224089.033940) can0 02000200#0000
(1699224089.043976) can0 02000200#0000
(1699224089.044982) can0 03C30F0F#87878787878787
(1699224089.053965) can0 02000200#0000
(1699224089.063981) can0 02000200#0000
(1699224089.068165) can0 00E#5E8E13AB00000000
(1699224089.073993) can0 02000200#0000
(1699224089.084040) can0 02000200#0000
(1699224089.088278) can0 0C140000#03
(1699224089.094045) can0 02000200#0000
(1699224089.104097) can0 02000200#0000
(1699224089.114114) can0 02000200#0000
(1699224089.115940) can0 1C0C0100#64
(1699224089.116615) can0 140C0101#0000
(1699224089.118292) can0 00E#5E8E13AB00000000
(1699224089.124124) can0 02000200#0000
(1699224089.134097) can0 02000200#0000
(1699224089.144133) can0 02000200#0000
(1699224089.145103) can0 03C30F0F#87878787878787
(1699224089.154119) can0 02000200#0000
(1699224089.164131) can0 02000200#0000
(1699224089.168338) can0 00E#5E8E13AB00000000
(1699224089.174147) can0 02000200#0000
(1699224089.184164) can0 02000200#0000
(1699224089.194186) can0 02000200#0000
(1699224089.204203) can0 02000200#0000
(1699224089.214229) can0 02000200#0000
(1699224089.218413) can0 00E#5E8E13AB00000000
(1699224089.224232) can0 02000200#0000
(1699224089.234240) can0 02000200#0000
(1699224089.244265) can0 02000200#0000
(1699224089.245256) can0 03C30F0F#87878787878787
(1699224089.254270) can0 02000200#0000
(1699224089.264286) can0 02000200#0000
(1699224089.268486) can0 00E#5E8E13AB00000000
(1699224089.274321) can0 02000200#0000
(1699224089.275851) can0 14300100#0000
(1699224089.284315) can0 02000200#0000
(1699224089.286258) can0 1C300104#F74E0200F74E0200
(1699224089.294326) can0 02000200#0000
(1699224089.304388) can0 02000200#0000
(1699224089.314393) can0 02000200#0000
(1699224089.318564) can0 00E#5E8E13AB00000000
(1699224089.324383) can0 02000200#0000
(1699224089.334393) can0 02000200#0000
(1699224089.344442) can0 02000200#0000
(1699224089.345402) can0 03C30F0F#87878787878787
(1699224089.354426) can0 02000200#0000
(1699224089.364462) can0 02000200#0000
(1699224089.365778) can0 140C0101#0000
(1699224089.368619) can0 00E#5E8E13AB00000000
(1699224089.374456) can0 02000200#0000
(1699224089.384530) can0 02000200#0000
(1699224089.394511) can0 02000200#0000
(1699224089.404550) can0 02000200#0000
(1699224089.414531) can0 02000200#0000
(1699224089.418727) can0 00E#5E8E13AB00000000
(1699224089.424547) can0 02000200#0000
(1699224089.434594) can0 02000200#0000
(1699224089.444629) can0 02000200#0000
(1699224089.445572) can0 03C30F0F#87878787878787
(1699224089.454565) can0 02000200#0000
(1699224089.464591) can0 02000200#0000
(1699224089.468761) can0 00E#5E8E13AB00000000
(1699224089.474599) can0 02000200#0000
(1699224089.484610) can0 02000200#0000
(1699224089.494626) can0 02000200#0000
(1699224089.504665) can0 02000200#0000
(1699224089.514682) can0 02000200#0000
(1699224089.518882) can0 00E#5E8E13AB00000000
(1699224089.524688) can0 02000200#0000
(1699224089.525700) can0 14300100#0000
(1699224089.534688) can0 02000200#0000
(1699224089.544714) can0 02000200#0000
(1699224089.545710) can0 03C30F0F#87878787878787
(1699224089.554722) can0 02000200#0000
(1699224089.564733) can0 02000200#0000
(1699224089.568920) can0 00E#5E8E13AB00000000
(1699224089.574754) can0 02000200#0000
(1699224089.584761) can0 02000200#0000
(1699224089.587762) can0 0C140000#02
(1699224089.594783) can0 02000200#0000
(1699224089.604829) can0 02000200#0000
(1699224089.614829) can0 02000200#0000
(1699224089.615654) can0 140C0101#0000
(1699224089.619056) can0 00E#5E8E13AB00000000
(1699224089.624903) can0 02000200#0000
(1699224089.634878) can0 02000200#0000
(1699224089.644870) can0 02000200#0000
(1699224089.645886) can0 03C30F0F#87878787878787
(1699224089.651240) can0 1C2C0200#00120F860717
(1699224089.654868) can0 02000200#0000
(1699224089.664889) can0 02000200#0000
(1699224089.669061) can0 00E#5E8E13AB00000000
(1699224089.674901) can0 02000200#0000
(1699224089.684916) can0 02000200#0000
(1699224089.694964) can0 02000200#0000
(1699224089.704984) can0 02000200#0000
(1699224089.715027) can0 02000200#0000
(1699224089.719172) can0 00E#5E8E13AB00000000
(1699224089.724978) can0 02000200#0000
(1699224089.734995) can0 02000200#0000
(1699224089.745018) can0 02000200#0000
(1699224089.746011) can0 03C30F0F#87878787878787
(1699224089.755015) can0 02000200#0000
(1699224089.755664) can0 0C140100#C0
(1699224089.765031) can0 02000200#0000
(1699224089.769248) can0 00E#5E8E13AB00000000
(1699224089.775047) can0 02000200#0000
(1699224089.775766) can0 14300100#0000
(1699224089.785069) can0 02000200#0000
(1699224089.795095) can0 02000200#0000
(1699224089.805104) can0 02000200#0000
(1699224089.815133) can0 02000200#0000
(1699224089.819317) can0 00E#5E8E13AB00000000
(1699224089.825122) can0 02000200#0000
(1699224089.835158) can0 02000200#0000
(1699224089.845175) can0 02000200#0000
(1699224089.846177) can0 03C30F0F#87878787878787
(1699224089.855168) can0 02000200#0000
(1699224089.855813) can0 0C140100#C1
(1699224089.865184) can0 02000200#0000
(1699224089.865929) can0 140C0101#0000
(1699224089.869364) can0 00E#5E8E13AB00000000
(1699224089.875203) can0 02000200#0000
(1699224089.885252) can0 02000200#0000
(1699224089.895231) can0 02000200#0000
(1699224089.905262) can0 02000200#0000
(1699224089.915286) can0 02000200#0000
(1699224089.919470) can0 00E#5E8E13AB00000000
(1699224089.925268) can0 02000200#0000
(1699224089.935289) can0 02000200#0000
(1699224089.945316) can0 02000200#0000
(1699224089.946314) can0 03C30F0F#87878787878787
(1699224089.955343) can0 02000200#0000
(1699224089.965335) can0 02000200#0000
(1699224089.969519) can0 00E#5E8E13AB00000000
(1699224089.975358) can0 02000200#0000
(1699224089.985377) can0 02000200#0000
(1699224089.995384) can0 02000200#0000
(1699224090.005397) can0 02000200#0000
(1699224090.015432) can0 02000200#0000
(1699224090.019627) can0 00E#5E8E13AB00000000
(1699224090.025318) can0 14300100#0000
(1699224090.025988) can0 02000200#0000
(1699224090.035443) can0 02000200#0000
(1699224090.045472) can0 02000200#0000
(1699224090.046476) can0 03C30F0F#87878787878787
(1699224090.055476) can0 02000200#0000
(1699224090.065487) can0 02000200#0000
(1699224090.069715) can0 00E#5E8E13AB00000000
(1699224090.075537) can0 02000200#0000
(1699224090.085545) can0 02000200#0000
(1699224090.087291) can0 0C140000#03
(1699224090.095530) can0 02000200#0000
(1699224090.105592) can0 02000200#0000
(1699224090.115165) can0 1C0C0100#64
(1699224090.115857) can0 02000200#0000
(1699224090.116632) can0 140C0101#0000
(1699224090.119814) can0 00E#5E8E13AB00000000
(1699224090.125596) can0 02000200#0000
(1699224090.135619) can0 02000200#0000
(1699224090.145623) can0 02000200#0000
(1699224090.146626) can0 03C30F0F#87878787878787
(1699224090.155623) can0 02000200#0000
(1699224090.165636) can0 02000200#0000
(1699224090.169816) can0 00E#5E8E13AB00000000
(1699224090.175653) can0 02000200#0000
(1699224090.185678) can0 02000200#0000
(1699224090.195686) can0 02000200#0000
(1699224090.205700) can0 02000200#0000
(1699224090.215736) can0 02000200#0000
(1699224090.219925) can0 00E#5E8E13AB00000000
(1699224090.225741) can0 02000200#0000
(1699224090.235759) can0 02000200#0000
(1699224090.245778) can0 02000200#0000
(1699224090.246791) can0 03C30F0F#87878787878787
(1699224090.255806) can0 02000200#0000
(1699224090.265786) can0 02000200#0000
(1699224090.270002) can0 00E#5E8E13AB00000000
(1699224090.275097) can0 14300100#0000
(1699224090.275816) can0 02000200#0000
(1699224090.285822) can0 02000200#0000
(1699224090.295479) can0 1C300104#F74E0200F74E0200
(1699224090.296199) can0 02000200#0000
(1699224090.305866) can0 02000200#0000
(1699224090.315926) can0 02000200#0000
(1699224090.320068) can0 00E#5E8E13AB00000000
(1699224090.325906) can0 02000200#0000
(1699224090.335892) can0 02000200#0000
(1699224090.345934) can0 02000200#0000
(1699224090.346913) can0 03C30F0F#87878787878787
(1699224090.355935) can0 02000200#0000
(1699224090.365094) can0 140C0101#0000
(1699224090.365967) can0 02000200#0000
(1699224090.370150) can0 00E#5E8E13AB00000000
(1699224090.375985) can0 02000200#0000
(1699224090.385996) can0 02000200#0000
(1699224090.396008) can0 02000200#0000
(1699224090.406104) can0 02000200#0000
(1699224090.416041) can0 02000200#0000
(1699224090.420230) can0 00E#5E8E13AB00000000
(1699224090.426032) can0 02000200#0000
(1699224090.436096) can0 02000200#0000
(1699224090.446102) can0 02000200#0000
(1699224090.447058) can0 03C30F0F#87878787878787
(1699224090.456094) can0 02000200#0000
(1699224090.466090) can0 02000200#0000
(1699224090.470276) can0 00E#5E8E13AB00000000
(1699224090.476103) can0 02000200#0000
(1699224090.486123) can0 02000200#0000
(1699224090.496135) can0 02000200#0000
(1699224090.506195) can0 02000200#0000
(1699224090.516184) can0 02000200#0000
(1699224090.520371) can0 00E#5E8E13AB00000000
(1699224090.524911) can0 14300100#0000
(1699224090.526174) can0 02000200#0000
(1699224090.536196) can0 02000200#0000
(1699224090.546229) can0 02000200#0000
(1699224090.547215) can0 03C30F0F#87878787878787
(1699224090.556224) can0 02000200#0000
(1699224090.566241) can0 02000200#0000
(1699224090.570421) can0 00E#5E8E13AB00000000
(1699224090.576251) can0 02000200#0000
(1699224090.586301) can0 02000200#0000
(1699224090.586947) can0 0C140000#02
(1699224090.596289) can0 02000200#0000
(1699224090.606336) can0 02000200#0000
(1699224090.614847) can0 140C0101#0000
(1699224090.616374) can0 02000200#0000
(1699224090.620597) can0 00E#5E8E13AB00000000
(1699224090.626350) can0 02000200#0000
(1699224090.636347) can0 02000200#0000
(1699224090.646377) can0 02000200#0000
(1699224090.647360) can0 03C30F0F#87878787878787
(1699224090.656381) can0 02000200#0000
(1699224090.666423) can0 02000200#0000
(1699224090.670578) can0 00E#5E8E13AB00000000
(1699224090.676410) can0 02000200#0000
(1699224090.686425) can0 02000200#0000
(1699224090.696470) can0 02000200#0000
(1699224090.706498) can0 02000200#0000
(1699224090.716559) can0 02000200#0000
(1699224090.720671) can0 00E#5E8E13AB00000000
(1699224090.726475) can0 02000200#0000
(1699224090.736536) can0 02000200#0000
(1699224090.746529) can0 02000200#0000
(1699224090.747596) can0 03C30F0F#87878787878787
(1699224090.754623) can0 0C140100#C0
(1699224090.756563) can0 02000200#0000
(1699224090.766545) can0 02000200#0000
(1699224090.770729) can0 00E#5E8E13AB00000000
(1699224090.774705) can0 14300100#0000
(1699224090.776560) can0 02000200#0000
(1699224090.786582) can0 02000200#0000
(1699224090.796597) can0 02000200#0000
(1699224090.806601) can0 02000200#0000
(1699224090.816677) can0 02000200#0000
(1699224090.820837) can0 00E#5E8E13AB00000000
(1699224090.826624) can0 02000200#0000
(1699224090.836673) can0 02000200#0000
(1699224090.846678) can0 02000200#0000
(1699224090.847669) can0 03C30F0F#87878787878787
(1699224090.854553) can0 0C140100#C1
(1699224090.856681) can0 02000200#0000
(1699224090.864667) can0 140C0101#0000
(1699224090.866683) can0 02000200#0000
(1699224090.870902) can0 00E#5E8E13AB00000000
(1699224090.876716) can0 02000200#0000
(1699224090.886723) can0 02000200#0000
(1699224090.896733) can0 02000200#0000
(1699224090.906790) can0 02000200#0000
(1699224090.916801) can0 02000200#0000
(1699224090.920971) can0 00E#5E8E13AB00000000
(1699224090.926785) can0 02000200#0000
(1699224090.936868) can0 02000200#0000
(1699224090.946823) can0 02000200#0000
(1699224090.947818) can0 03C30F0F#87878787878787
(1699224090.956820) can0 02000200#0000
(1699224090.966838) can0 02000200#0000
(1699224090.971025) can0 00E#5E8E13AB00000000
(1699224090.976861) can0 02000200#0000
(1699224090.986901) can0 02000200#0000
(1699224090.996882) can0 02000200#0000
(1699224091.006904) can0 02000200#0000
(1699224091.016932) can0 02000200#0000
(1699224091.021140) can0 00E#5E8E13AB00000000
(1699224091.024570) can0 14300100#0000
(1699224091.026930) can0 02000200#0000
(1699224091.036963) can0 02000200#0000
(1699224091.046984) can0 02000200#0000
(1699224091.047968) can0 03C30F0F#87878787878787
(1699224091.056991) can0 02000200#0000
(1699224091.067024) can0 02000200#0000
(1699224091.071185) can0 00E#5E8E13AB00000000
(1699224091.077039) can0 02000200#0000
(1699224091.086296) can0 0C140000#03
(1699224091.087022) can0 02000200#0000
(1699224091.097051) can0 02000200#0000
(1699224091.107075) can0 02000200#0000
(1699224091.114408) can0 1C0C0100#64
(1699224091.115078) can0 140C0101#0000
(1699224091.117134) can0 02000200#0000
(1699224091.121322) can0 00E#5E8E13AB00000000
(1699224091.127086) can0 02000200#0000
(1699224091.137101) can0 02000200#0000
(1699224091.147133) can0 02000200#0000
(1699224091.148134) can0 03C30F0F#87878787878787
(1699224091.157133) can0 02000200#0000
(1699224091.167146) can0 02000200#0000
(1699224091.171338) can0 00E#5E8E13AB00000000
(1699224091.177172) can0 02000200#0000
(1699224091.187181) can0 02000200#0000
(1699224091.197203) can0 02000200#0000
(1699224091.207209) can0 02000200#0000
(1699224091.217242) can0 02000200#0000
(1699224091.221431) can0 00E#5E8E13AB00000000
(1699224091.227242) can0 02000200#0000
(1699224091.237249) can0 02000200#0000
(1699224091.247279) can0 02000200#0000
(1699224091.248272) can0 03C30F0F#87878787878787
(1699224091.257281) can0 02000200#0000
(1699224091.267295) can0 02000200#0000
(1699224091.271478) can0 00E#5E8E13AB00000000
(1699224091.274313) can0 14300100#0000
(1699224091.277310) can0 02000200#0000
(1699224091.287330) can0 02000200#0000
(1699224091.297342) can0 02000200#0000
(1699224091.304748) can0 1C300104#F74E0200F74E0200
(1699224091.307389) can0 02000200#0000
(1699224091.317391) can0 02000200#0000
(1699224091.321584) can0 00E#5E8E13AB00000000
(1699224091.327392) can0 02000200#0000
(1699224091.337402) can0 02000200#0000
(1699224091.347427) can0 02000200#0000
(1699224091.348478) can0 03C30F0F#87878787878787
(1699224091.357432) can0 02000200#0000
(1699224091.364250) can0 140C0101#0000
(1699224091.367455) can0 02000200#0000
(1699224091.371628) can0 00E#5E8E13AB00000000
(1699224091.377467) can0 02000200#0000
(1699224091.387473) can0 02000200#0000
(1699224091.397495) can0 02000200#0000
(1699224091.407537) can0 02000200#0000
(1699224091.417543) can0 02000200#0000
(1699224091.421733) can0 00E#5E8E13AB00000000
(1699224091.427548) can0 02000200#0000
(1699224091.437596) can0 02000200#0000
(1699224091.447595) can0 02000200#0000
(1699224091.448598) can0 03C30F0F#87878787878787
(1699224091.457587) can0 02000200#0000
(1699224091.467599) can0 02000200#0000
(1699224091.471810) can0 00E#5E8E13AB00000000
(1699224091.477612) can0 02000200#0000
(1699224091.487627) can0 02000200#0000
(1699224091.497643) can0 02000200#0000
(1699224091.507710) can0 02000200#0000
(1699224091.517701) can0 02000200#0000
(1699224091.521882) can0 00E#5E8E13AB00000000
(1699224091.524146) can0 14300100#0000
(1699224091.527696) can0 02000200#0000
(1699224091.537733) can0 02000200#0000
(1699224091.547732) can0 02000200#0000
(1699224091.548735) can0 03C30F0F#87878787878787
(1699224091.557731) can0 02000200#0000
(1699224091.567753) can0 02000200#0000
(1699224091.571925) can0 00E#5E8E13AB00000000
(1699224091.577762) can0 02000200#0000
(1699224091.585767) can0 0C140000#02
(1699224091.587779) can0 02000200#0000
(1699224091.597817) can0 02000200#0000
(1699224091.607850) can0 02000200#0000
(1699224091.614063) can0 140C0101#0000
(1699224091.617890) can0 02000200#0000
(1699224091.622088) can0 00E#5E8E13AB00000000
(1699224091.627868) can0 02000200#0000
(1699224091.637859) can0 02000200#0000
(1699224091.647884) can0 02000200#0000
(1699224091.648880) can0 03C30F0F#87878787878787
(1699224091.657891) can0 02000200#0000
(1699224091.667899) can0 02000200#0000
(1699224091.672088) can0 00E#5E8E13AB00000000
(1699224091.677915) can0 02000200#0000
(1699224091.687947) can0 02000200#0000
(1699224091.697950) can0 02000200#0000
(1699224091.708014) can0 02000200#0000
(1699224091.718000) can0 02000200#0000
(1699224091.722199) can0 00E#5E8E13AB00000000
(1699224091.727994) can0 02000200#0000
(1699224091.738014) can0 02000200#0000
(1699224091.748032) can0 02000200#0000
(1699224091.749027) can0 03C30F0F#87878787878787
(1699224091.753851) can0 0C140100#C0
(1699224091.758034) can0 02000200#0000
(1699224091.768053) can0 02000200#0000
(1699224091.772230) can0 00E#5E8E13AB00000000
(1699224091.773930) can0 14300100#0000
(1699224091.778076) can0 02000200#0000
(1699224091.788084) can0 02000200#0000
(1699224091.798098) can0 02000200#0000
(1699224091.808113) can0 02000200#0000
(1699224091.818147) can0 02000200#0000
(1699224091.822338) can0 00E#5E8E13AB00000000
(1699224091.828142) can0 02000200#0000
(1699224091.838149) can0 02000200#0000
(1699224091.848183) can0 02000200#0000
(1699224091.849181) can0 03C30F0F#87878787878787
(1699224091.853780) can0 0C140100#C1
(1699224091.858183) can0 02000200#0000
(1699224091.863893) can0 140C0101#0000
(1699224091.868209) can0 02000200#0000
(1699224091.872408) can0 00E#5E8E13AB00000000
(1699224091.878217) can0 02000200#0000
(1699224091.888227) can0 02000200#0000
(1699224091.898275) can0 02000200#0000
(1699224091.908298) can0 02000200#0000
(1699224091.918299) can0 02000200#0000
(1699224091.922486) can0 00E#5E8E13AB00000000
(1699224091.928292) can0 02000200#0000
(1699224091.938301) can0 02000200#0000
(1699224091.948329) can0 02000200#0000
(1699224091.949334) can0 03C30F0F#87878787878787
(1699224091.958330) can0 02000200#0000
(1699224091.968354) can0 02000200#0000
(1699224091.972558) can0 00E#5E8E13AB00000000
(1699224091.978390) can0 02000200#0000
(1699224091.988380) can0 02000200#0000
(1699224091.998393) can0 02000200#0000
(1699224092.008445) can0 02000200#0000
(1699224092.018439) can0 02000200#0000
(1699224092.022657) can0 00E#5E8E13AB00000000
(1699224092.023769) can0 14300100#0000
(1699224092.028471) can0 02000200#0000
(1699224092.038455) can0 02000200#0000
(1699224092.048517) can0 02000200#0000
(1699224092.049486) can0 03C30F0F#87878787878787
(1699224092.058485) can0 02000200#0000
(1699224092.068532) can0 02000200#0000
(1699224092.072682) can0 00E#5E8E13AB00000000
(1699224092.078516) can0 02000200#0000
(1699224092.085289) can0 0C140000#03
(1699224092.088564) can0 02000200#0000
(1699224092.098545) can0 02000200#0000
(1699224092.108628) can0 02000200#0000
(1699224092.113601) can0 1C0C0100#64
(1699224092.114326) can0 140C0101#0000
(1699224092.118676) can0 02000200#0000
(1699224092.122833) can0 00E#5E8E13AB00000000
(1699224092.128638) can0 02000200#0000
(1699224092.138635) can0 02000200#0000
(1699224092.148633) can0 02000200#0000
(1699224092.149636) can0 03C30F0F#87878787878787
(1699224092.158631) can0 02000200#0000
(1699224092.168654) can0 02000200#0000
(1699224092.172837) can0 00E#5E8E13AB00000000
(1699224092.178670) can0 02000200#0000
(1699224092.188675) can0 02000200#0000
(1699224092.198698) can0 02000200#0000
(1699224092.208739) can0 02000200#0000
(1699224092.218797) can0 02000200#0000
(1699224092.222961) can0 00E#5E8E13AB00000000
(1699224092.228766) can0 02000200#0000
(1699224092.238760) can0 02000200#0000
(1699224092.248779) can0 02000200#0000
(1699224092.249775) can0 03C30F0F#87878787878787
(1699224092.258783) can0 02000200#0000
(1699224092.268806) can0 02000200#0000
(1699224092.272986) can0 00E#5E8E13AB00000000
(1699224092.273706) can0 14300100#0000
(1699224092.278849) can0 02000200#0000
(1699224092.288830) can0 02000200#0000
(1699224092.298858) can0 02000200#0000
(1699224092.308894) can0 02000200#0000
(1699224092.313949) can0 1C300104#F74E0200F74E0200
(1699224092.318901) can0 02000200#0000
(1699224092.323085) can0 00E#5E8E13AB00000000
(1699224092.328891) can0 02000200#0000
(1699224092.338917) can0 02000200#0000
(1699224092.348945) can0 02000200#0000
(1699224092.349933) can0 03C30F0F#87878787878787
(1699224092.358934) can0 02000200#0000
(1699224092.363482) can0 140C0101#0000
(1699224092.368956) can0 02000200#0000
(1699224092.373141) can0 00E#5E8E13AB00000000
(1699224092.378963) can0 02000200#0000
(1699224092.388974) can0 02000200#0000
(1699224092.398995) can0 02000200#0000
(1699224092.409014) can0 02000200#0000
(1699224092.419037) can0 02000200#0000
(1699224092.423233) can0 00E#5E8E13AB00000000
(1699224092.429037) can0 02000200#0000
(1699224092.439095) can0 02000200#0000
(1699224092.449097) can0 02000200#0000
(1699224092.450088) can0 03C30F0F#87878787878787
(1699224092.459132) can0 02000200#0000
(1699224092.469139) can0 02000200#0000
(1699224092.473320) can0 00E#5E8E13AB00000000
(1699224092.479120) can0 02000200#0000
(1699224092.489182) can0 02000200#0000
(1699224092.499157) can0 02000200#0000
(1699224092.509205) can0 02000200#0000
(1699224092.519219) can0 02000200#0000
(1699224092.523405) can0 00E#5E8E13AB00000000
(1699224092.524131) can0 14300100#0000
(1699224092.529219) can0 02000200#0000
(1699224092.539231) can0 02000200#0000
(1699224092.549263) can0 02000200#0000
(1699224092.550223) can0 03C30F0F#87878787878787
(1699224092.559236) can0 02000200#0000
(1699224092.569247) can0 02000200#0000
(1699224092.573442) can0 00E#5E8E13AB00000000
(1699224092.579262) can0 02000200#0000
(1699224092.584782) can0 0C140000#02
(1699224092.589281) can0 02000200#0000
(1699224092.599376) can0 02000200#0000
(1699224092.609386) can0 02000200#0000
(1699224092.613334) can0 140C0101#0000
(1699224092.619395) can0 02000200#0000
(1699224092.623576) can0 00E#5E8E13AB00000000
(1699224092.629343) can0 02000200#0000
(1699224092.639384) can0 02000200#0000
(1699224092.649387) can0 02000200#0000
(1699224092.650387) can0 03C30F0F#87878787878787
(1699224092.659416) can0 02000200#0000
(1699224092.669399) can0 02000200#0000
(1699224092.673587) can0 00E#5E8E13AB00000000
(1699224092.679420) can0 02000200#0000
(1699224092.689441) can0 02000200#0000
(1699224092.699445) can0 02000200#0000
(1699224092.709497) can0 02000200#0000
(1699224092.719543) can0 02000200#0000
(1699224092.723714) can0 00E#5E8E13AB00000000
(1699224092.729519) can0 02000200#0000
(1699224092.739521) can0 02000200#0000
(1699224092.749536) can0 02000200#0000
(1699224092.750532) can0 03C30F0F#87878787878787
(1699224092.753078) can0 0C140100#C0
(1699224092.759539) can0 02000200#0000
(1699224092.769558) can0 02000200#0000
(1699224092.773174) can0 14300100#0000
(1699224092.774107) can0 00E#5E8E13AB00000000
(1699224092.779580) can0 02000200#0000
(1699224092.789597) can0 02000200#0000
(1699224092.799604) can0 02000200#0000
(1699224092.809620) can0 02000200#0000
(1699224092.819652) can0 02000200#0000
(1699224092.823842) can0 00E#5E8E13AB00000000
(1699224092.829654) can0 02000200#0000
(1699224092.839661) can0 02000200#0000
(1699224092.849698) can0 02000200#0000
(1699224092.850684) can0 03C30F0F#87878787878787
(1699224092.853003) can0 0C140100#C1
(1699224092.859700) can0 02000200#0000
(1699224092.863100) can0 140C0101#0000
(1699224092.869709) can0 02000200#0000
(1699224092.870491) can0 062#40010000
(1699224092.871230) can0 061#52010002
(1699224092.872003) can0 061#60010000
(1699224092.873886) can0 00E#5E8E13AB00000000
(1699224092.879752) can0 02000200#0000
(1699224092.885279) can0 060#70010009
(1699224092.886124) can0 061#80010010
(1699224092.886856) can0 062#00000000
(1699224092.887683) can0 061#12000002
(1699224092.924021) can0 00E#5E8E13AB00000000
(1699224092.942794) can0 061#20000000
(1699224092.943593) can0 061#30000001
(1699224092.944344) can0 061#80000080
(1699224092.945087) can0 0C180100#0101
(1699224092.945737) can0 0A040200#64
(1699224092.946901) can0 181C0200#0260000000000000
(1699224092.949838) can0 02000200#0000
(1699224092.950837) can0 03C30F0F#87878787878787
(1699224092.959849) can0 02000200#0000
(1699224092.969852) can0 02000200#0000
(1699224092.974043) can0 00E#5E8E13AB00000000
(1699224092.979871) can0 02000200#0000
(1699224092.989890) can0 02000200#0000
(1699224092.999902) can0 02000200#0000
(1699224093.009918) can0 02000200#0000
(1699224093.019940) can0 02000200#0000
(1699224093.022975) can0 14300100#0000
(1699224093.024137) can0 00E#5E8E13AB00000000
(1699224093.029965) can0 02000200#0000
(1699224093.039983) can0 02000200#0000
(1699224093.049989) can0 02000200#0000
(1699224093.050997) can0 03C30F0F#87878787878787
(1699224093.059988) can0 02000200#0000
(1699224093.070009) can0 02000200#0000
(1699224093.074191) can0 00E#5E8E13AB00000000
(1699224093.080019) can0 02000200#0000
(1699224093.084344) can0 0C140000#03
(1699224093.090040) can0 02000200#0000
(1699224093.100064) can0 02000200#0000
(1699224093.110137) can0 02000200#0000
(1699224093.112832) can0 1C0C0100#64
(1699224093.113541) can0 140C0101#0000
(1699224093.120107) can0 02000200#0000
(1699224093.124394) can0 00E#5E8E13AB00000000
(1699224093.130135) can0 02000200#0000
(1699224093.140151) can0 02000200#0000
(1699224093.150155) can0 02000200#0000
(1699224093.151142) can0 03C30F0F#87878787878787
(1699224093.160150) can0 02000200#0000
(1699224093.170171) can0 02000200#0000
(1699224093.174343) can0 00E#5E8E13AB00000000
(1699224093.180184) can0 02000200#0000
(1699224093.190199) can0 02000200#0000
(1699224093.200222) can0 02000200#0000
(1699224093.210226) can0 02000200#0000
(1699224093.220256) can0 02000200#0000
(1699224093.224492) can0 00E#5E8E13AB00000000
(1699224093.230246) can0 02000200#0000
(1699224093.240271) can0 02000200#0000
(1699224093.250294) can0 02000200#0000
(1699224093.251287) can0 03C30F0F#87878787878787
(1699224093.260297) can0 02000200#0000
(1699224093.270307) can0 02000200#0000
(1699224093.272797) can0 14300100#0000
(1699224093.274494) can0 00E#5E8E13AB00000000
(1699224093.280329) can0 02000200#0000
(1699224093.290353) can0 02000200#0000
(1699224093.300358) can0 02000200#0000
(1699224093.310391) can0 02000200#0000
(1699224093.320386) can0 02000200#0000
(1699224093.323182) can0 1C300104#F74E0200F74E0200
(1699224093.324590) can0 00E#5E8E13AB00000000
(1699224093.330401) can0 02000200#0000
(1699224093.340464) can0 02000200#0000
(1699224093.350450) can0 02000200#0000
(1699224093.351455) can0 03C30F0F#87878787878787
(1699224093.360483) can0 02000200#0000
(1699224093.362719) can0 140C0101#0000
(1699224093.370480) can0 02000200#0000
(1699224093.374675) can0 00E#5E8E13AB00000000
(1699224093.380522) can0 02000200#0000
(1699224093.390490) can0 02000200#0000
(1699224093.400553) can0 02000200#0000
(1699224093.410521) can0 02000200#0000
(1699224093.420570) can0 02000200#0000
(1699224093.424769) can0 00E#5E8E13AB00000000
(1699224093.430573) can0 02000200#0000
(1699224093.440668) can0 02000200#0000
(1699224093.450616) can0 02000200#0000
(1699224093.451604) can0 03C30F0F#87878787878787
(1699224093.460605) can0 02000200#0000
(1699224093.470618) can0 02000200#0000
(1699224093.474807) can0 00E#5E8E13AB00000000
(1699224093.480619) can0 02000200#0000
(1699224093.490640) can0 02000200#0000
(1699224093.500655) can0 02000200#0000
(1699224093.510720) can0 02000200#0000
(1699224093.520731) can0 02000200#0000
(1699224093.522587) can0 14300100#0000
(1699224093.524920) can0 00E#5E8E13AB00000000
(1699224093.530732) can0 02000200#0000
(1699224093.540720) can0 02000200#0000
(1699224093.550756) can0 02000200#0000
(1699224093.551763) can0 03C30F0F#87878787878787
(1699224093.560747) can0 02000200#0000
(1699224093.570763) can0 02000200#0000
(1699224093.574960) can0 00E#5E8E13AB00000000
(1699224093.580777) can0 02000200#0000
(1699224093.583782) can0 0C140000#02
(1699224093.590796) can0 02000200#0000
(1699224093.600802) can0 02000200#0000
(1699224093.610889) can0 02000200#0000
(1699224093.612574) can0 140C0101#0000
(1699224093.620937) can0 02000200#0000
(1699224093.625139) can0 00E#5E8E13AB00000000
(1699224093.630881) can0 02000200#0000
(1699224093.640872) can0 02000200#0000
(1699224093.650916) can0 02000200#0000
(1699224093.651920) can0 03C30F0F#87878787878787
(1699224093.660906) can0 02000200#0000
(1699224093.670985) can0 02000200#0000
(1699224093.675107) can0 00E#5E8E13AB00000000
(1699224093.680934) can0 02000200#0000
(1699224093.690947) can0 02000200#0000
(1699224093.700984) can0 02000200#0000
(1699224093.711018) can0 02000200#0000
(1699224093.721009) can0 02000200#0000
(1699224093.725199) can0 00E#5E8E13AB00000000
(1699224093.731004) can0 02000200#0000
(1699224093.741020) can0 02000200#0000
(1699224093.751053) can0 02000200#0000
(1699224093.752043) can0 03C30F0F#87878787878787
(1699224093.752674) can0 0C140100#C0
(1699224093.761077) can0 02000200#0000
(1699224093.771069) can0 02000200#0000
(1699224093.772391) can0 14300100#0000
(1699224093.775252) can0 00E#5E8E13AB00000000
(1699224093.781089) can0 02000200#0000
(1699224093.791094) can0 02000200#0000
(1699224093.801129) can0 02000200#0000
(1699224093.811130) can0 02000200#0000
(1699224093.821151) can0 02000200#0000
(1699224093.825376) can0 00E#5E8E13AB00000000
(1699224093.831152) can0 02000200#0000
(1699224093.841177) can0 02000200#0000
(1699224093.851198) can0 02000200#0000
(1699224093.852234) can0 03C30F0F#87878787878787
(1699224093.852827) can0 0C140100#C1
(1699224093.861195) can0 02000200#0000
(1699224093.862376) can0 140C0101#0000
(1699224093.871212) can0 02000200#0000
(1699224093.875423) can0 00E#5E8E13AB00000000
(1699224093.881225) can0 02000200#0000
(1699224093.891243) can0 02000200#0000
(1699224093.901265) can0 02000200#0000
(1699224093.911325) can0 02000200#0000
(1699224093.921314) can0 02000200#0000
(1699224093.925491) can0 00E#5E8E13AB00000000
(1699224093.931311) can0 02000200#0000
(1699224093.941319) can0 02000200#0000
(1699224093.951380) can0 02000200#0000
(1699224093.952351) can0 03C30F0F#87878787878787
(1699224093.961350) can0 02000200#0000
(1699224093.971373) can0 02000200#0000
(1699224093.975547) can0 00E#5E8E13AB00000000
(1699224093.981380) can0 02000200#0000
(1699224093.991391) can0 02000200#0000
(1699224094.001403) can0 02000200#0000
(1699224094.011421) can0 02000200#0000
(1699224094.021485) can0 02000200#0000
(1699224094.022270) can0 14300100#0000
(1699224094.025651) can0 00E#5E8E13AB00000000
(1699224094.031475) can0 02000200#0000
(1699224094.041470) can0 02000200#0000
(1699224094.051504) can0 02000200#0000
(1699224094.052652) can0 03C30F0F#87878787878787
(1699224094.061495) can0 02000200#0000
(1699224094.071516) can0 02000200#0000
(1699224094.075721) can0 00E#5E8E13AB00000000
(1699224094.081531) can0 02000200#0000
(1699224094.083304) can0 0C140000#03
(1699224094.091546) can0 02000200#0000
(1699224094.101561) can0 02000200#0000
(1699224094.111626) can0 02000200#0000
(1699224094.112320) can0 140C0101#0000
(1699224094.112939) can0 1C0C0100#64
(1699224094.121614) can0 02000200#0000
(1699224094.125867) can0 00E#5E8E13AB00000000
(1699224094.131639) can0 02000200#0000
(1699224094.141631) can0 02000200#0000
(1699224094.151650) can0 02000200#0000
(1699224094.152650) can0 03C30F0F#87878787878787
(1699224094.161664) can0 02000200#0000
(1699224094.171670) can0 02000200#0000
(1699224094.175853) can0 00E#5E8E13AB00000000
(1699224094.181680) can0 02000200#0000
(1699224094.191706) can0 02000200#0000
(1699224094.201713) can0 02000200#0000
(1699224094.211727) can0 02000200#0000
(1699224094.221771) can0 02000200#0000
(1699224094.225943) can0 00E#5E8E13AB00000000
(1699224094.231790) can0 02000200#0000
(1699224094.241775) can0 02000200#0000
(1699224094.251808) can0 02000200#0000
(1699224094.252801) can0 03C30F0F#87878787878787
(1699224094.261806) can0 02000200#0000
(1699224094.271820) can0 02000200#0000
(1699224094.272564) can0 14300100#0000
(1699224094.275999) can0 00E#5E8E13AB00000000
(1699224094.281859) can0 02000200#0000
(1699224094.291850) can0 02000200#0000
(1699224094.301864) can0 02000200#0000
(1699224094.311925) can0 02000200#0000
(1699224094.321917) can0 02000200#0000
(1699224094.326120) can0 00E#5E8E13AB00000000
(1699224094.331910) can0 02000200#0000
(1699224094.333006) can0 1C300104#F74E0200F74E0200
(1699224094.341930) can0 02000200#0000
(1699224094.351950) can0 02000200#0000
(1699224094.352967) can0 03C30F0F#87878787878787
(1699224094.361943) can0 140C0101#0000
(1699224094.362701) can0 02000200#0000
(1699224094.371967) can0 02000200#0000
(1699224094.376174) can0 00E#5E8E13AB00000000
(1699224094.381982) can0 02000200#0000
(1699224094.391997) can0 02000200#0000
(1699224094.402015) can0 02000200#0000
(1699224094.412025) can0 02000200#0000
(1699224094.422070) can0 02000200#0000
(1699224094.426248) can0 00E#5E8E13AB00000000
(1699224094.432053) can0 02000200#0000
(1699224094.442126) can0 02000200#0000
(1699224094.452103) can0 02000200#0000
(1699224094.453114) can0 03C30F0F#87878787878787
(1699224094.462095) can0 02000200#0000
(1699224094.472114) can0 02000200#0000
(1699224094.476302) can0 00E#5E8E13AB00000000
(1699224094.482133) can0 02000200#0000
(1699224094.492144) can0 02000200#0000
(1699224094.502171) can0 02000200#0000
(1699224094.512220) can0 02000200#0000
(1699224094.521855) can0 14300100#0000
(1699224094.522577) can0 02000200#0000
(1699224094.526409) can0 00E#5E8E13AB00000000
(1699224094.532216) can0 02000200#0000
(1699224094.542223) can0 02000200#0000
(1699224094.552279) can0 02000200#0000
(1699224094.553248) can0 03C30F0F#87878787878787
(1699224094.562254) can0 02000200#0000
(1699224094.572269) can0 02000200#0000
(1699224094.576508) can0 00E#5E8E13AB00000000
(1699224094.582294) can0 02000200#0000
(1699224094.582960) can0 0C140000#02
(1699224094.592300) can0 02000200#0000
(1699224094.602348) can0 02000200#0000
(1699224094.611805) can0 140C0101#0000
(1699224094.612522) can0 02000200#0000
(1699224094.622365) can0 02000200#0000
(1699224094.626590) can0 00E#5E8E13AB00000000
(1699224094.632409) can0 02000200#0000
(1699224094.642413) can0 02000200#0000
(1699224094.652445) can0 02000200#0000
(1699224094.653430) can0 03C30F0F#87878787878787
(1699224094.662407) can0 02000200#0000
(1699224094.672474) can0 02000200#0000
(1699224094.676607) can0 00E#5E8E13AB00000000
(1699224094.682459) can0 02000200#0000
(1699224094.692490) can0 02000200#0000
(1699224094.702482) can0 02000200#0000
(1699224094.712530) can0 02000200#0000
(1699224094.722535) can0 02000200#0000
(1699224094.726708) can0 00E#5E8E13AB00000000
(1699224094.732559) can0 02000200#0000
(1699224094.742521) can0 02000200#0000
(1699224094.751556) can0 0C140100#C0
(1699224094.752580) can0 02000200#0000
(1699224094.753571) can0 03C30F0F#87878787878787
(1699224094.762584) can0 02000200#0000
(1699224094.771648) can0 14300100#0000
(1699224094.772568) can0 02000200#0000
(1699224094.776758) can0 00E#5E8E13AB00000000
(1699224094.782584) can0 02000200#0000
(1699224094.792603) can0 02000200#0000
(1699224094.802615) can0 02000200#0000
(1699224094.812628) can0 02000200#0000
(1699224094.822673) can0 02000200#0000
(1699224094.826852) can0 00E#5E8E13AB00000000
(1699224094.832664) can0 02000200#0000
(1699224094.842676) can0 02000200#0000
(1699224094.851476) can0 0C140100#C1
(1699224094.852729) can0 02000200#0000
(1699224094.853695) can0 03C30F0F#87878787878787
(1699224094.861567) can0 140C0101#0000
(1699224094.862724) can0 02000200#0000
(1699224094.872721) can0 02000200#0000
(1699224094.876920) can0 00E#5E8E13AB00000000
(1699224094.882734) can0 02000200#0000
(1699224094.892751) can0 02000200#0000
(1699224094.902762) can0 02000200#0000
(1699224094.912815) can0 02000200#0000
(1699224094.922816) can0 02000200#0000
(1699224094.927003) can0 00E#5E8E13AB00000000
(1699224094.932815) can0 02000200#0000
(1699224094.942827) can0 02000200#0000
(1699224094.952878) can0 02000200#0000
(1699224094.953871) can0 03C30F0F#87878787878787
(1699224094.962859) can0 02000200#0000
(1699224094.972897) can0 02000200#0000
(1699224094.977059) can0 00E#5E8E13AB00000000
(1699224094.982879) can0 02000200#0000
(1699224094.992900) can0 02000200#0000
(1699224095.002936) can0 02000200#0000
(1699224095.012927) can0 02000200#0000
(1699224095.021468) can0 14300100#0000
(1699224095.022994) can0 02000200#0000
(1699224095.027181) can0 00E#5E8E13AB00000000
(1699224095.032973) can0 02000200#0000
(1699224095.042977) can0 02000200#0000
(1699224095.053004) can0 02000200#0000
(1699224095.054022) can0 03C30F0F#87878787878787
(1699224095.063007) can0 02000200#0000
(1699224095.073069) can0 02000200#0000
(1699224095.077214) can0 00E#5E8E13AB00000000
(1699224095.082327) can0 0C140000#03
(1699224095.083067) can0 02000200#0000
(1699224095.093052) can0 02000200#0000
(1699224095.103062) can0 02000200#0000
(1699224095.111328) can0 1C0C0100#64
(1699224095.112016) can0 140C0101#0000
(1699224095.113087) can0 02000200#0000
(1699224095.123106) can0 02000200#0000
(1699224095.127406) can0 00E#5E8E13AB00000000
(1699224095.133167) can0 02000200#0000
(1699224095.143161) can0 02000200#0000
(1699224095.153166) can0 02000200#0000
(1699224095.154168) can0 03C30F0F#87878787878787
(1699224095.163165) can0 02000200#0000
(1699224095.173173) can0 02000200#0000
(1699224095.177361) can0 00E#5E8E13AB00000000
(1699224095.183187) can0 02000200#0000
(1699224095.193202) can0 02000200#0000
(1699224095.203224) can0 02000200#0000
(1699224095.213236) can0 02000200#0000
(1699224095.223269) can0 02000200#0000
(1699224095.227456) can0 00E#5E8E13AB00000000
(1699224095.233267) can0 02000200#0000
(1699224095.243285) can0 02000200#0000
(1699224095.253306) can0 02000200#0000
(1699224095.254299) can0 03C30F0F#87878787878787
(1699224095.263332) can0 02000200#0000
(1699224095.271253) can0 14300100#0000
(1699224095.273352) can0 02000200#0000
(1699224095.277510) can0 00E#5E8E13AB00000000
(1699224095.283371) can0 02000200#0000
(1699224095.293366) can0 02000200#0000
(1699224095.303384) can0 02000200#0000
(1699224095.313408) can0 02000200#0000
(1699224095.323422) can0 02000200#0000
(1699224095.327637) can0 00E#5E8E13AB00000000
(1699224095.333420) can0 02000200#0000
(1699224095.341608) can0 1C300104#F74E0200F74E0200
(1699224095.343456) can0 02000200#0000
