(1699225407.111397) can0 02000200#0000
(1699225407.112063) can0 140C0101#0000
(1699225407.115570) can0 00E#5E8E13AB00000000
(1699225407.121381) can0 02000200#0000
(1699225407.131423) can0 02000200#0000
(1699225407.141382) can0 02000200#0000
(1699225407.151387) can0 02000200#0000
(1699225407.161394) can0 02000200#0000
(1699225407.165599) can0 00E#5E8E13AB00000000
(1699225407.171416) can0 02000200#0000
(1699225407.181427) can0 02000200#0000
(1699225407.191460) can0 02000200#0000
(1699225407.192447) can0 03C30F0F#87878787878787
(1699225407.201460) can0 02000200#0000
(1699225407.211474) can0 02000200#0000
(1699225407.215653) can0 00E#5E8E13AB00000000
(1699225407.221486) can0 02000200#0000
(1699225407.231522) can0 02000200#0000
(1699225407.241528) can0 02000200#0000
(1699225407.251529) can0 02000200#0000
(1699225407.252162) can0 0C140100#C0
(1699225407.261557) can0 02000200#0000
(1699225407.265750) can0 00E#5E8E13AB00000000
(1699225407.271592) can0 02000200#0000
(1699225407.272302) can0 14300100#0000
(1699225407.281605) can0 02000200#0000
(1699225407.291659) can0 02000200#0000
(1699225407.292693) can0 03C30F0F#87878787878787
(1699225407.301615) can0 02000200#0000
(1699225407.311639) can0 02000200#0000
(1699225407.315803) can0 00E#5E8E13AB00000000
(1699225407.321636) can0 02000200#0000
(1699225407.331672) can0 02000200#0000
(1699225407.341670) can0 02000200#0000
(1699225407.351685) can0 02000200#0000
(1699225407.352365) can0 0C140100#C1
(1699225407.361699) can0 02000200#0000
(1699225407.362417) can0 140C0101#0000
(1699225407.365904) can0 00E#5E8E13AB00000000
(1699225407.371711) can0 02000200#0000
(1699225407.381740) can0 02000200#0000
(1699225407.391763) can0 02000200#0000
(1699225407.392752) can0 03C30F0F#87878787878787
(1699225407.401764) can0 02000200#0000
(1699225407.411778) can0 02000200#0000
(1699225407.415958) can0 00E#5E8E13AB00000000
(1699225407.421795) can0 02000200#0000
(1699225407.431805) can0 02000200#0000
(1699225407.441829) can0 02000200#0000
(1699225407.451832) can0 02000200#0000
(1699225407.461846) can0 02000200#0000
(1699225407.466055) can0 00E#5E8E13AB00000000
(1699225407.471878) can0 02000200#0000
(1699225407.481881) can0 02000200#0000
(1699225407.491945) can0 02000200#0000
(1699225407.492907) can0 03C30F0F#87878787878787
(1699225407.501907) can0 02000200#0000
(1699225407.511930) can0 02000200#0000
(1699225407.516104) can0 00E#5E8E13AB00000000
(1699225407.521654) can0 14300100#0000
(1699225407.522372) can0 02000200#0000
(1699225407.531951) can0 02000200#0000
(1699225407.541972) can0 02000200#0000
(1699225407.551987) can0 02000200#0000
(1699225407.562048) can0 02000200#0000
(1699225407.566222) can0 00E#5E8E13AB00000000
(1699225407.572026) can0 1C300104#F74E0200F74E0200
(1699225407.572749) can0 02000200#0000
(1699225407.582105) can0 02000200#0000
(1699225407.588457) can0 0C140000#03
(1699225407.592071) can0 02000200#0000
(1699225407.593070) can0 03C30F0F#87878787878787
(1699225407.602059) can0 02000200#0000
(1699225407.611475) can0 1C0C0100#94
(1699225407.612189) can0 02000200#0000
(1699225407.612916) can0 140C0101#0000
(1699225407.616268) can0 00E#5E8E13AB00000000
(1699225407.622089) can0 02000200#0000
(1699225407.632111) can0 02000200#0000
(1699225407.642126) can0 02000200#0000
(1699225407.652133) can0 02000200#0000
(1699225407.662144) can0 02000200#0000
(1699225407.666366) can0 00E#5E8E13AB00000000
(1699225407.672184) can0 02000200#0000
(1699225407.682178) can0 02000200#0000
(1699225407.692210) can0 02000200#0000
(1699225407.693202) can0 03C30F0F#87878787878787
(1699225407.702224) can0 02000200#0000
(1699225407.712224) can0 02000200#0000
(1699225407.716408) can0 00E#5E8E13AB00000000
(1699225407.722238) can0 02000200#0000
(1699225407.732254) can0 02000200#0000
(1699225407.742271) can0 02000200#0000
(1699225407.752285) can0 02000200#0000
(1699225407.762307) can0 02000200#0000
(1699225407.766504) can0 00E#5E8E13AB00000000
(1699225407.771450) can0 14300100#0000
(1699225407.772313) can0 02000200#0000
(1699225407.782346) can0 02000200#0000
(1699225407.792363) can0 02000200#0000
(1699225407.793356) can0 03C30F0F#87878787878787
(1699225407.802431) can0 02000200#0000
(1699225407.812410) can0 02000200#0000
(1699225407.816606) can0 00E#5E8E13AB00000000
(1699225407.822396) can0 02000200#0000
(1699225407.832404) can0 02000200#0000
(1699225407.842416) can0 02000200#0000
(1699225407.852451) can0 02000200#0000
(1699225407.861412) can0 140C0101#0000
(1699225407.862452) can0 02000200#0000
(1699225407.866657) can0 00E#5E8E13AB00000000
(1699225407.872481) can0 02000200#0000
(1699225407.882484) can0 02000200#0000
(1699225407.892516) can0 02000200#0000
(1699225407.893501) can0 03C30F0F#87878787878787
(1699225407.902504) can0 02000200#0000
(1699225407.912548) can0 02000200#0000
(1699225407.916710) can0 00E#5E8E13AB00000000
(1699225407.922537) can0 02000200#0000
(1699225407.932571) can0 02000200#0000
(1699225407.942570) can0 02000200#0000
(1699225407.952586) can0 02000200#0000
(1699225407.962602) can0 02000200#0000
(1699225407.966805) can0 00E#5E8E13AB00000000
(1699225407.972620) can0 02000200#0000
(1699225407.982632) can0 02000200#0000
(1699225407.992671) can0 02000200#0000
(1699225407.993652) can0 03C30F0F#87878787878787
(1699225408.002664) can0 02000200#0000
(1699225408.012682) can0 02000200#0000
(1699225408.016875) can0 00E#5E8E13AB00000000
(1699225408.021258) can0 14300100#0000
(1699225408.022695) can0 02000200#0000
(1699225408.032708) can0 02000200#0000
(1699225408.042781) can0 02000200#0000
(1699225408.052738) can0 02000200#0000
(1699225408.062784) can0 02000200#0000
(1699225408.066963) can0 00E#5E8E13AB00000000
(1699225408.072792) can0 02000200#0000
(1699225408.082780) can0 02000200#0000
(1699225408.087926) can0 0C140000#02
(1699225408.092807) can0 02000200#0000
(1699225408.093802) can0 03C30F0F#87878787878787
(1699225408.102817) can0 02000200#0000
(1699225408.111312) can0 140C0101#0000
(1699225408.112903) can0 02000200#0000
(1699225408.117070) can0 00E#5E8E13AB00000000
(1699225408.122913) can0 02000200#0000
(1699225408.132873) can0 02000200#0000
(1699225408.142923) can0 02000200#0000
(1699225408.152936) can0 02000200#0000
(1699225408.162938) can0 02000200#0000
(1699225408.167190) can0 00E#5E8E13AB00000000
(1699225408.172953) can0 02000200#0000
(1699225408.182969) can0 02000200#0000
(1699225408.192969) can0 02000200#0000
(1699225408.193955) can0 03C30F0F#87878787878787
(1699225408.202971) can0 02000200#0000
(1699225408.213015) can0 02000200#0000
(1699225408.217168) can0 00E#5E8E13AB00000000
(1699225408.222994) can0 02000200#0000
(1699225408.233020) can0 02000200#0000
(1699225408.243047) can0 02000200#0000
(1699225408.250991) can0 0C140100#C0
(1699225408.253044) can0 02000200#0000
(1699225408.263070) can0 02000200#0000
(1699225408.267265) can0 00E#5E8E13AB00000000
(1699225408.271084) can0 14300100#0000
(1699225408.273070) can0 02000200#0000
(1699225408.283120) can0 02000200#0000
(1699225408.293116) can0 02000200#0000
(1699225408.294105) can0 03C30F0F#87878787878787
(1699225408.303120) can0 02000200#0000
(1699225408.313195) can0 02000200#0000
(1699225408.317401) can0 00E#5E8E13AB00000000
(1699225408.323209) can0 02000200#0000
(1699225408.333215) can0 02000200#0000
(1699225408.343247) can0 02000200#0000
(1699225408.350951) can0 0C140100#C1
(1699225408.353205) can0 02000200#0000
(1699225408.361041) can0 140C0101#0000
(1699225408.363241) can0 02000200#0000
(1699225408.367470) can0 00E#5E8E13AB00000000
(1699225408.373254) can0 02000200#0000
(1699225408.383283) can0 02000200#0000
(1699225408.393326) can0 02000200#0000
(1699225408.394289) can0 03C30F0F#87878787878787
(1699225408.403322) can0 02000200#0000
(1699225408.413332) can0 02000200#0000
(1699225408.417493) can0 00E#5E8E13AB00000000
(1699225408.423345) can0 02000200#0000
(1699225408.433366) can0 02000200#0000
(1699225408.443356) can0 02000200#0000
(1699225408.453359) can0 02000200#0000
(1699225408.463372) can0 02000200#0000
(1699225408.467580) can0 00E#5E8E13AB00000000
(1699225408.473405) can0 02000200#0000
(1699225408.483398) can0 02000200#0000
(1699225408.493555) can0 02000200#0000
(1699225408.494493) can0 03C30F0F#87878787878787
(1699225408.503502) can0 02000200#0000
(1699225408.513507) can0 02000200#0000
(1699225408.517703) can0 00E#5E8E13AB00000000
(1699225408.520949) can0 14300100#0000
(1699225408.523528) can0 02000200#0000
(1699225408.533576) can0 02000200#0000
(1699225408.543557) can0 02000200#0000
(1699225408.553575) can0 02000200#0000
(1699225408.563667) can0 02000200#0000
(1699225408.567891) can0 00E#5E8E13AB00000000
(1699225408.573669) can0 02000200#0000
(1699225408.574309) can0 062#40000000
(1699225408.575116) can0 061#52000002
(1699225408.575888) can0 061#60000000
(1699225408.576693) can0 061#70000009
(1699225408.577436) can0 061#80000010
(1699225408.578173) can0 062#00010000
(1699225408.579025) can0 061#12010002
(1699225408.581406) can0 1C300104#F74E0200F74E0200
(1699225408.587621) can0 0C140000#03
(1699225408.593912) can0 03C30F0F#87878787878787
(1699225408.610803) can0 1C0C0100#94
(1699225408.611515) can0 140C0101#0000
(1699225408.617821) can0 00E#5E8E13AB00000000
(1699225408.640531) can0 061#20010000
(1699225408.667925) can0 00E#5E8E13AB00000000
(1699225408.688204) can0 060#30010001
(1699225408.689036) can0 061#80010080
(1699225408.690327) can0 181C0200#0260000000000000
(1699225408.691054) can0 0C180000#0203
(1699225408.693811) can0 02000200#0000
(1699225408.694801) can0 03C30F0F#87878787878787
(1699225408.703804) can0 02000200#0000
(1699225408.713922) can0 02000200#0000
(1699225408.718105) can0 00E#5E8E13AB00000000
(1699225408.723950) can0 02000200#0000
(1699225408.733907) can0 02000200#0000
(1699225408.743968) can0 02000200#0000
(1699225408.753948) can0 02000200#0000
(1699225408.764000) can0 02000200#0000
(1699225408.768235) can0 00E#5E8E13AB00000000
(1699225408.770840) can0 14300100#0000
(1699225408.773968) can0 02000200#0000
(1699225408.783988) can0 02000200#0000
(1699225408.793914) can0 02000200#0000
(1699225408.794882) can0 03C30F0F#87878787878787
(1699225408.803961) can0 02000200#0000
(1699225408.813943) can0 02000200#0000
(1699225408.818123) can0 00E#5E8E13AB00000000
(1699225408.823988) can0 02000200#0000
(1699225408.834001) can0 02000200#0000
(1699225408.843965) can0 02000200#0000
(1699225408.853953) can0 02000200#0000
(1699225408.860621) can0 140C0101#0000
(1699225408.863964) can0 02000200#0000
(1699225408.868170) can0 00E#5E8E13AB00000000
(1699225408.874015) can0 02000200#0000
(1699225408.883999) can0 02000200#0000
(1699225408.894038) can0 02000200#0000
(1699225408.895014) can0 03C30F0F#87878787878787
(1699225408.904018) can0 02000200#0000
(1699225408.914036) can0 02000200#0000
(1699225408.918226) can0 00E#5E8E13AB00000000
(1699225408.924049) can0 02000200#0000
(1699225408.934065) can0 02000200#0000
(1699225408.937861) can0 0C180000#0202
(1699225408.944130) can0 02000200#0000
(1699225408.954108) can0 02000200#0000
(1699225408.964119) can0 02000200#0000
(1699225408.968339) can0 00E#5E8E13AB00000000
(1699225408.974131) can0 02000200#0000
(1699225408.984164) can0 02000200#0000
(1699225408.987991) can0 0C180001#220101
(1699225408.994179) can0 02000200#0000
(1699225408.995165) can0 03C30F0F#87878787878787
(1699225409.004174) can0 02000200#0000
(1699225409.014191) can0 02000200#0000
(1699225409.018379) can0 00E#5E8E13AB00000000
(1699225409.020485) can0 14300100#0000
(1699225409.024204) can0 02000200#0000
(1699225409.034224) can0 02000200#0000
(1699225409.037879) can0 0C180001#010101
(1699225409.044246) can0 02000200#0000
(1699225409.054251) can0 02000200#0000
(1699225409.064347) can0 02000200#0000
(1699225409.068524) can0 00E#5E8E13AB00000000
(1699225409.074310) can0 02000200#0000
(1699225409.084350) can0 02000200#0000
(1699225409.086996) can0 0C140000#02
(1699225409.088664) can0 0C180000#0201
(1699225409.094379) can0 02000200#0000
(1699225409.095346) can0 03C30F0F#87878787878787
(1699225409.104336) can0 02000200#0000
(1699225409.110417) can0 140C0101#0000
(1699225409.114361) can0 02000200#0000
(1699225409.118536) can0 00E#5E8E13AB00000000
(1699225409.124364) can0 02000200#0000
(1699225409.134371) can0 02000200#0000
(1699225409.144397) can0 02000200#0000
(1699225409.154416) can0 02000200#0000
(1699225409.164413) can0 02000200#0000
(1699225409.168632) can0 00E#5E8E13AB00000000
(1699225409.174430) can0 02000200#0000
(1699225409.184460) can0 02000200#0000
(1699225409.194496) can0 02000200#0000
(1699225409.195484) can0 03C30F0F#87878787878787
(1699225409.204475) can0 02000200#0000
(1699225409.214496) can0 02000200#0000
(1699225409.218690) can0 00E#5E8E13AB00000000
(1699225409.224547) can0 02000200#0000
(1699225409.234555) can0 02000200#0000
(1699225409.244581) can0 02000200#0000
(1699225409.250233) can0 0C140100#C0
(1699225409.254563) can0 02000200#0000
(1699225409.264598) can0 02000200#0000
(1699225409.268771) can0 00E#5E8E13AB00000000
(1699225409.270304) can0 14300100#0000
(1699225409.274747) can0 02000200#0000
(1699225409.284634) can0 02000200#0000
(1699225409.294652) can0 02000200#0000
(1699225409.295647) can0 03C30F0F#87878787878787
(1699225409.304631) can0 02000200#0000
(1699225409.314659) can0 02000200#0000
(1699225409.318828) can0 00E#5E8E13AB00000000
(1699225409.324674) can0 02000200#0000
(1699225409.334677) can0 02000200#0000
(1699225409.344707) can0 02000200#0000
(1699225409.350158) can0 0C140100#C1
(1699225409.354703) can0 02000200#0000
(1699225409.360237) can0 140C0101#0000
(1699225409.364736) can0 02000200#0000
(1699225409.368929) can0 00E#5E8E13AB00000000
(1699225409.374737) can0 02000200#0000
(1699225409.384773) can0 02000200#0000
(1699225409.394798) can0 02000200#0000
(1699225409.395781) can0 03C30F0F#87878787878787
(1699225409.404777) can0 02000200#0000
(1699225409.414791) can0 02000200#0000
(1699225409.418989) can0 00E#5E8E13AB00000000
(1699225409.424812) can0 02000200#0000
(1699225409.434902) can0 02000200#0000
(1699225409.444928) can0 02000200#0000
(1699225409.454947) can0 02000200#0000
(1699225409.464912) can0 02000200#0000
(1699225409.469093) can0 00E#5E8E13AB00000000
(1699225409.474907) can0 02000200#0000
(1699225409.484923) can0 02000200#0000
(1699225409.494966) can0 02000200#0000
(1699225409.495932) can0 03C30F0F#87878787878787
(1699225409.504944) can0 02000200#0000
(1699225409.514949) can0 02000200#0000
(1699225409.519139) can0 00E#5E8E13AB00000000
(1699225409.520097) can0 14300100#0000
(1699225409.524959) can0 02000200#0000
(1699225409.534988) can0 02000200#0000
(1699225409.545000) can0 02000200#0000
(1699225409.555025) can0 02000200#0000
(1699225409.565069) can0 02000200#0000
(1699225409.569239) can0 00E#5E8E13AB00000000
(1699225409.575046) can0 02000200#0000
(1699225409.585115) can0 02000200#0000
(1699225409.586612) can0 0C140000#03
(1699225409.590487) can0 1C300104#F74E0200F74E0200
(1699225409.595101) can0 02000200#0000
(1699225409.596087) can0 03C30F0F#87878787878787
(1699225409.605079) can0 02000200#0000
(1699225409.609942) can0 1C0C0100#94
(1699225409.610662) can0 140C0101#0000
(1699225409.615099) can0 02000200#0000
(1699225409.619280) can0 00E#5E8E13AB00000000
(1699225409.625121) can0 02000200#0000
(1699225409.635134) can0 02000200#0000
(1699225409.645152) can0 02000200#0000
(1699225409.655172) can0 02000200#0000
(1699225409.665177) can0 02000200#0000
(1699225409.669384) can0 00E#5E8E13AB00000000
(1699225409.675219) can0 02000200#0000
(1699225409.685224) can0 02000200#0000
(1699225409.695250) can0 02000200#0000
(1699225409.696246) can0 03C30F0F#87878787878787
(1699225409.701622) can0 1C2C0200#00280F860717
(1699225409.705273) can0 02000200#0000
(1699225409.715248) can0 02000200#0000
(1699225409.719447) can0 00E#5E8E13AB00000000
(1699225409.725263) can0 02000200#0000
(1699225409.735280) can0 02000200#0000
(1699225409.745312) can0 02000200#0000
(1699225409.755326) can0 02000200#0000
(1699225409.765322) can0 02000200#0000
(1699225409.769544) can0 00E#5E8E13AB00000000
(1699225409.770269) can0 14300100#0000
(1699225409.775355) can0 02000200#0000
(1699225409.785352) can0 02000200#0000
(1699225409.795385) can0 02000200#0000
(1699225409.796388) can0 03C30F0F#87878787878787
(1699225409.805384) can0 02000200#0000
(1699225409.815397) can0 02000200#0000
(1699225409.819592) can0 00E#5E8E13AB00000000
(1699225409.825416) can0 02000200#0000
(1699225409.835429) can0 02000200#0000
(1699225409.845458) can0 02000200#0000
(1699225409.855461) can0 02000200#0000
(1699225409.859854) can0 140C0101#0000
(1699225409.865492) can0 02000200#0000
(1699225409.869696) can0 00E#5E8E13AB00000000
(1699225409.875516) can0 02000200#0000
(1699225409.885522) can0 02000200#0000
(1699225409.895552) can0 02000200#0000
(1699225409.896552) can0 03C30F0F#87878787878787
(1699225409.905541) can0 02000200#0000
(1699225409.915556) can0 02000200#0000
(1699225409.919742) can0 00E#5E8E13AB00000000
(1699225409.925569) can0 02000200#0000
(1699225409.935602) can0 02000200#0000
(1699225409.945615) can0 02000200#0000
(1699225409.955610) can0 02000200#0000
(1699225409.965638) can0 02000200#0000
(1699225409.969842) can0 00E#5E8E13AB00000000
(1699225409.975641) can0 02000200#0000
(1699225409.985669) can0 02000200#0000
(1699225409.995723) can0 02000200#0000
(1699225409.996694) can0 03C30F0F#87878787878787
(1699225410.005700) can0 02000200#0000
(1699225410.015716) can0 02000200#0000
(1699225410.019884) can0 00E#5E8E13AB00000000
(1699225410.020620) can0 14300100#0000
(1699225410.025733) can0 02000200#0000
(1699225410.035741) can0 02000200#0000
(1699225410.045752) can0 02000200#0000
(1699225410.055780) can0 02000200#0000
(1699225410.065816) can0 02000200#0000
(1699225410.070010) can0 00E#5E8E13AB00000000
(1699225410.075824) can0 02000200#0000
(1699225410.085870) can0 02000200#0000
(1699225410.086495) can0 0C140000#02
(1699225410.095860) can0 02000200#0000
(1699225410.096843) can0 03C30F0F#87878787878787
(1699225410.105839) can0 02000200#0000
(1699225410.109650) can0 140C0101#0000
(1699225410.115870) can0 02000200#0000
(1699225410.120047) can0 00E#5E8E13AB00000000
(1699225410.125883) can0 02000200#0000
(1699225410.135887) can0 02000200#0000
(1699225410.145913) can0 02000200#0000
(1699225410.155918) can0 02000200#0000
(1699225410.165917) can0 02000200#13FA
(1699225410.170136) can0 00E#5E8E13AB00000000
(1699225410.175927) can0 02000200#18F7
(1699225410.185979) can0 02000200#1DF5
(1699225410.195983) can0 02000200#21F3
(1699225410.196967) can0 03C30F0F#87878787878787
(1699225410.205981) can0 02000200#25F2
(1699225410.215991) can0 02000200#29F1
(1699225410.220208) can0 00E#5E8E13AB00000000
(1699225410.226020) can0 02000200#2DF1
(1699225410.236020) can0 02000200#30F2
(1699225410.246047) can0 02000200#33F3
(1699225410.249457) can0 0C140100#C0
(1699225410.256047) can0 02000200#36F6
(1699225410.266109) can0 02000200#37F9
(1699225410.269524) can0 14300100#0000
(1699225410.270470) can0 00E#5E8E13AB00000000
(1699225410.276127) can0 02000200#3AFC
(1699225410.286146) can0 02000200#3DFF
(1699225410.287310) can0 181C0000#0A60000000000000
(1699225410.296157) can0 02000200#4002
(1699225410.297154) can0 03C30F0F#87878787878787
(1699225410.306126) can0 02000200#4305
(1699225410.316154) can0 02000200#4608
(1699225410.320353) can0 00E#5E8E13AB00000000
(1699225410.326154) can0 02000200#490B
(1699225410.336172) can0 02000200#4D0D
(1699225410.346187) can0 02000200#500E
(1699225410.349368) can0 0C140100#C1
(1699225410.356208) can0 02000200#530F
(1699225410.359461) can0 140C0101#0000
(1699225410.366201) can0 02000200#5510
(1699225410.370439) can0 00E#5E8E13AB00000000
(1699225410.376225) can0 02000200#5710
(1699225410.386249) can0 02000200#5910
(1699225410.396264) can0 02000200#5B0F
(1699225410.397261) can0 03C30F0F#87878787878787
(1699225410.406272) can0 02000200#5D0E
(1699225410.416304) can0 02000200#5F0C
(1699225410.420487) can0 00E#5E8E13AB00000000
(1699225410.426303) can0 02000200#600B
(1699225410.436314) can0 02000200#6109
(1699225410.446348) can0 02000200#6208
(1699225410.456370) can0 02000200#6207
(1699225410.466372) can0 02000200#6207
(1699225410.470591) can0 00E#5E8E13AB00000000
(1699225410.476393) can0 02000200#6207
(1699225410.486422) can0 02000200#6207
(1699225410.487139) can0 0C180000#0202
(1699225410.496460) can0 02000200#6207
(1699225410.497426) can0 03C30F0F#87878787878787
(1699225410.506424) can0 02000200#6207
(1699225410.516458) can0 02000200#6207
(1699225410.519335) can0 14300100#0000
(1699225410.520640) can0 00E#5E8E13AB00000000
(1699225410.526455) can0 02000200#6207
(1699225410.536377) can0 0C180001#230101
(1699225410.537097) can0 02000200#6207
(1699225410.546500) can0 02000200#6207
(1699225410.556517) can0 02000200#6207
(1699225410.566592) can0 02000200#6207
(1699225410.570760) can0 00E#5E8E13AB00000000
(1699225410.576570) can0 02000200#6206
(1699225410.585470) can0 0C140000#03
(1699225410.586606) can0 02000200#6205
(1699225410.587405) can0 0C180001#030101
(1699225410.596632) can0 02000200#6204
(1699225410.597595) can0 03C30F0F#87878787878787
(1699225410.599678) can0 1C300104#F74E0200F74E0200
(1699225410.606579) can0 02000200#6203
(1699225410.609162) can0 1C0C0100#94
(1699225410.609880) can0 140C0101#0000
(1699225410.616605) can0 02000200#6202
(1699225410.620811) can0 00E#5E8E13AB00000000
(1699225410.626624) can0 02000200#6201
(1699225410.636337) can0 0C180001#020101
(1699225410.637058) can0 02000200#6200
(1699225410.646683) can0 02000200#61FF
(1699225410.656668) can0 02000200#60FF
(1699225410.666699) can0 02000200#5D00
(1699225410.670894) can0 00E#5E8E13AB00000000
(1699225410.676705) can0 02000200#5902
(1699225410.686235) can0 0C180000#0201
(1699225410.686954) can0 02000200#5405
(1699225410.696735) can0 02000200#4D08
(1699225410.697735) can0 03C30F0F#87878787878787
(1699225410.706737) can0 02000200#470A
(1699225410.716754) can0 02000200#410C
(1699225410.720949) can0 00E#5E8E13AB00000000
(1699225410.726767) can0 02000200#3C0D
(1699225410.736777) can0 02000200#360D
(1699225410.746807) can0 02000200#310C
(1699225410.756811) can0 02000200#2E0B
(1699225410.766825) can0 02000200#2B09
(1699225410.769135) can0 14300100#0000
(1699225410.771039) can0 00E#5E8E13AB00000000
(1699225410.776836) can0 02000200#2807
(1699225410.786858) can0 02000200#2506
(1699225410.796889) can0 02000200#2204
(1699225410.797875) can0 03C30F0F#87878787878787
(1699225410.806888) can0 02000200#1E02
(1699225410.816922) can0 02000200#1901
(1699225410.821102) can0 00E#5E8E13AB00000000
(1699225410.826924) can0 02000200#12FF
(1699225410.836935) can0 02000200#0000
(1699225410.846957) can0 02000200#0000
(1699225410.856969) can0 02000200#0000
(1699225410.859071) can0 140C0101#0000
(1699225410.866977) can0 02000200#0000
(1699225410.871199) can0 00E#5E8E13AB00000000
(1699225410.877024) can0 02000200#0000
(1699225410.887019) can0 02000200#0000
(1699225410.897043) can0 02000200#0000
(1699225410.898037) can0 03C30F0F#87878787878787
(1699225410.907044) can0 02000200#0000
(1699225410.917059) can0 02000200#0000
(1699225410.921246) can0 00E#5E8E13AB00000000
(1699225410.927075) can0 02000200#0000
(1699225410.937088) can0 02000200#0000
(1699225410.947107) can0 02000200#0000
(1699225410.957119) can0 02000200#0000
(1699225410.967142) can0 02000200#0000
(1699225410.971342) can0 00E#5E8E13AB00000000
(1699225410.977156) can0 02000200#0000
(1699225410.987170) can0 02000200#0000
(1699225410.997213) can0 02000200#0000
(1699225410.998204) can0 03C30F0F#87878787878787
(1699225411.007190) can0 02000200#0000
(1699225411.017208) can0 02000200#0000
(1699225411.018943) can0 14300100#0000
(1699225411.021394) can0 00E#5E8E13AB00000000
(1699225411.027226) can0 02000200#0000
(1699225411.037249) can0 02000200#0000
(1699225411.047260) can0 02000200#0000
(1699225411.057276) can0 02000200#0000
(1699225411.067320) can0 02000200#0000
(1699225411.071524) can0 00E#5E8E13AB00000000
(1699225411.077324) can0 02000200#0000
(1699225411.084944) can0 0C140000#02
(1699225411.087315) can0 02000200#0000
(1699225411.097432) can0 02000200#0000
(1699225411.098400) can0 03C30F0F#87878787878787
(1699225411.107432) can0 02000200#0000
(1699225411.108931) can0 140C0101#0000
(1699225411.117431) can0 02000200#0000
(1699225411.121609) can0 00E#5E8E13AB00000000
(1699225411.127446) can0 02000200#0000
(1699225411.137466) can0 02000200#0000
(1699225411.147501) can0 02000200#0000
(1699225411.157490) can0 02000200#0000
(1699225411.167518) can0 02000200#0000
(1699225411.171702) can0 00E#5E8E13AB00000000
(1699225411.177516) can0 02000200#0000
(1699225411.187560) can0 02000200#0000
(1699225411.197572) can0 02000200#0000
(1699225411.198517) can0 03C30F0F#87878787878787
(1699225411.207596) can0 02000200#0000
(1699225411.217579) can0 02000200#0000
(1699225411.221730) can0 00E#5E8E13AB00000000
(1699225411.227530) can0 02000200#0000
(1699225411.237543) can0 02000200#0000
(1699225411.247556) can0 02000200#0000
(1699225411.248669) can0 0C140100#C0
(1699225411.257591) can0 02000200#0000
(1699225411.267605) can0 02000200#0000
(1699225411.268765) can0 14300100#0000
(1699225411.271810) can0 00E#5E8E13AB00000000
(1699225411.277667) can0 02000200#0000
(1699225411.287652) can0 02000200#0000
(1699225411.297672) can0 02000200#0000
(1699225411.298656) can0 03C30F0F#87878787878787
(1699225411.307651) can0 02000200#0000
(1699225411.317663) can0 02000200#0000
(1699225411.321847) can0 00E#5E8E13AB00000000
(1699225411.327678) can0 02000200#0000
(1699225411.337716) can0 02000200#0000
(1699225411.347724) can0 02000200#0000
(1699225411.348611) can0 0C140100#C1
(1699225411.357726) can0 02000200#0000
(1699225411.358699) can0 140C0101#0000
(1699225411.367736) can0 02000200#0000
(1699225411.371960) can0 00E#5E8E13AB00000000
(1699225411.377758) can0 02000200#0000
(1699225411.387799) can0 02000200#0000
(1699225411.397804) can0 02000200#0000
(1699225411.398808) can0 03C30F0F#87878787878787
(1699225411.407816) can0 02000200#0000
(1699225411.417817) can0 02000200#0000
(1699225411.421997) can0 00E#5E8E13AB00000000
(1699225411.427832) can0 02000200#0000
(1699225411.437878) can0 02000200#0000
(1699225411.447880) can0 02000200#0000
(1699225411.457897) can0 02000200#0000
(1699225411.467891) can0 02000200#0000
(1699225411.472101) can0 00E#5E8E13AB00000000
(1699225411.477930) can0 02000200#0000
(1699225411.487943) can0 02000200#0000
(1699225411.497977) can0 02000200#0000
(1699225411.498964) can0 03C30F0F#87878787878787
(1699225411.507966) can0 02000200#0000
(1699225411.517980) can0 02000200#0000
(1699225411.518706) can0 14300100#0000
(1699225411.522149) can0 00E#5E8E13AB00000000
(1699225411.528002) can0 02000200#0000
(1699225411.538017) can0 02000200#0000
(1699225411.548020) can0 02000200#0000
(1699225411.558041) can0 02000200#0000
(1699225411.568100) can0 02000200#0000
(1699225411.572293) can0 00E#5E8E13AB00000000
(1699225411.578078) can0 02000200#0000
(1699225411.584455) can0 0C140000#03
(1699225411.588124) can0 02000200#0000
(1699225411.598139) can0 02000200#0000
(1699225411.599105) can0 03C30F0F#87878787878787
(1699225411.608108) can0 02000200#0000
(1699225411.608826) can0 140C0101#0000
(1699225411.609456) can0 1C0C0100#94
(1699225411.610580) can0 1C300104#F74E0200F74E0200
(1699225411.618118) can0 02000200#0000
(1699225411.622311) can0 00E#5E8E13AB00000000
(1699225411.628133) can0 02000200#0000
(1699225411.638167) can0 02000200#0000
(1699225411.648169) can0 02000200#0000
(1699225411.658181) can0 02000200#0000
(1699225411.668197) can0 02000200#0000
(1699225411.672404) can0 00E#5E8E13AB00000000
(1699225411.678237) can0 02000200#0000
(1699225411.688236) can0 02000200#0000
(1699225411.698262) can0 02000200#0000
(1699225411.699254) can0 03C30F0F#87878787878787
(1699225411.708262) can0 02000200#0000
(1699225411.718277) can0 02000200#0000
(1699225411.722473) can0 00E#5E8E13AB00000000
(1699225411.728286) can0 02000200#0000
(1699225411.738305) can0 02000200#0000
(1699225411.748319) can0 02000200#0000
(1699225411.758338) can0 02000200#0000
(1699225411.768344) can0 02000200#0000
(1699225411.769060) can0 14300100#0000
(1699225411.772576) can0 00E#5E8E13AB00000000
(1699225411.778357) can0 02000200#0000
(1699225411.788374) can0 02000200#0000
(1699225411.798409) can0 02000200#0000
(1699225411.799417) can0 03C30F0F#87878787878787
(1699225411.808405) can0 02000200#0000
(1699225411.818422) can0 02000200#0000
(1699225411.822615) can0 00E#5E8E13AB00000000
(1699225411.828443) can0 02000200#0000
(1699225411.838483) can0 02000200#0000
(1699225411.848478) can0 02000200#0000
(1699225411.858305) can0 140C0101#0000
(1699225411.859025) can0 02000200#0000
(1699225411.868516) can0 02000200#0000
(1699225411.872707) can0 00E#5E8E13AB00000000
(1699225411.878536) can0 02000200#0000
(1699225411.888544) can0 02000200#0000
(1699225411.898564) can0 02000200#0000
(1699225411.899552) can0 03C30F0F#87878787878787
(1699225411.908593) can0 02000200#0000
(1699225411.918591) can0 02000200#0000
(1699225411.922766) can0 00E#5E8E13AB00000000
(1699225411.928596) can0 02000200#0000
(1699225411.938613) can0 02000200#0000
(1699225411.948628) can0 02000200#0000
(1699225411.958639) can0 02000200#0000
(1699225411.968655) can0 02000200#0000
(1699225411.972860) can0 00E#5E8E13AB00000000
(1699225411.978670) can0 02000200#0000
(1699225411.988685) can0 02000200#0000
(1699225411.998739) can0 02000200#0000
(1699225411.999715) can0 03C30F0F#87878787878787
(1699225412.008707) can0 02000200#0000
(1699225412.018171) can0 14300100#0000
(1699225412.018892) can0 02000200#0000
(1699225412.022906) can0 00E#5E8E13AB00000000
(1699225412.028740) can0 02000200#0000
(1699225412.038758) can0 02000200#0000
(1699225412.048775) can0 02000200#0000
(1699225412.058790) can0 02000200#0000
(1699225412.068853) can0 02000200#0000
(1699225412.073029) can0 00E#5E8E13AB00000000
(1699225412.078856) can0 02000200#0000
(1699225412.083984) can0 0C140000#02
(1699225412.088868) can0 02000200#0000
(1699225412.098878) can0 02000200#0000
(1699225412.099869) can0 03C30F0F#87878787878787
(1699225412.108158) can0 140C0101#0000
(1699225412.108870) can0 02000200#0000
(1699225412.118891) can0 02000200#0000
(1699225412.123073) can0 00E#5E8E13AB00000000
(1699225412.128949) can0 02000200#0000
(1699225412.138910) can0 02000200#0000
(1699225412.148933) can0 02000200#0000
(1699225412.158947) can0 02000200#0000
(1699225412.168953) can0 02000200#0000
(1699225412.173161) can0 00E#5E8E13AB00000000
(1699225412.178984) can0 02000200#0000
(1699225412.188992) can0 02000200#0000
(1699225412.199010) can0 02000200#0000
(1699225412.200017) can0 03C30F0F#87878787878787
(1699225412.209008) can0 02000200#0000
(1699225412.219025) can0 02000200#0000
(1699225412.223213) can0 00E#5E8E13AB00000000
(1699225412.229041) can0 02000200#0000
(1699225412.239069) can0 02000200#0000
(1699225412.247908) can0 0C140100#C0
(1699225412.249102) can0 02000200#0000
(1699225412.259103) can0 02000200#0000
(1699225412.267982) can0 14300100#0000
(1699225412.269114) can0 02000200#0000
(1699225412.273326) can0 00E#5E8E13AB00000000
(1699225412.279161) can0 02000200#0000
(1699225412.289149) can0 02000200#0000
(1699225412.299186) can0 02000200#0000
(1699225412.300171) can0 03C30F0F#87878787878787
(1699225412.309169) can0 02000200#0000
(1699225412.319185) can0 02000200#0000
(1699225412.323367) can0 00E#5E8E13AB00000000
(1699225412.329192) can0 02000200#0000
(1699225412.339214) can0 02000200#0000
(1699225412.347837) can0 0C140100#C1
(1699225412.349231) can0 02000200#0000
(1699225412.357924) can0 140C0101#0000
(1699225412.359247) can0 02000200#0000
(1699225412.369252) can0 02000200#0000
(1699225412.373461) can0 00E#5E8E13AB00000000
(1699225412.379272) can0 02000200#0000
(1699225412.389295) can0 02000200#0000
(1699225412.399320) can0 02000200#0000
(1699225412.400321) can0 03C30F0F#87878787878787
(1699225412.409319) can0 02000200#0000
(1699225412.419331) can0 02000200#0000
(1699225412.423528) can0 00E#5E8E13AB00000000
(1699225412.429362) can0 02000200#0000
(1699225412.439372) can0 02000200#0000
(1699225412.449380) can0 02000200#0000
(1699225412.459398) can0 02000200#0000
(1699225412.469403) can0 02000200#0000
(1699225412.473617) can0 00E#5E8E13AB00000000
(1699225412.479450) can0 02000200#0000
(1699225412.489436) can0 02000200#0000
(1699225412.499500) can0 02000200#0000
(1699225412.500474) can0 03C30F0F#87878787878787
(1699225412.509464) can0 02000200#0000
(1699225412.517788) can0 14300100#0000
(1699225412.519489) can0 02000200#0000
(1699225412.523668) can0 00E#5E8E13AB00000000
(1699225412.529491) can0 02000200#0000
(1699225412.539502) can0 02000200#1205
(1699225412.549515) can0 02000200#1606
(1699225412.559531) can0 02000200#1C07
(1699225412.569595) can0 02000200#2207
(1699225412.573801) can0 00E#5E8E13AB00000000
(1699225412.579564) can0 02000200#2807
(1699225412.583499) can0 0C140000#03
(1699225412.589633) can0 02000200#2E07
(1699225412.599642) can0 02000200#3407
(1699225412.600640) can0 03C30F0F#87878787878787
(1699225412.607639) can0 1C0C0100#94
(1699225412.608350) can0 140C0101#0000
(1699225412.609643) can0 02000200#3A07
(1699225412.618137) can0 1C300104#F74E0200F74E0200
(1699225412.619648) can0 02000200#4007
(1699225412.623827) can0 00E#5E8E13AB00000000
(1699225412.629646) can0 02000200#4607
(1699225412.634536) can0 181C0000#0A60000000000000
(1699225412.639655) can0 02000200#4B07
(1699225412.649674) can0 02000200#5007
(1699225412.659707) can0 02000200#5407
(1699225412.669711) can0 02000200#5907
(1699225412.673916) can0 00E#5E8E13AB00000000
(1699225412.679726) can0 02000200#5D06
(1699225412.689747) can0 02000200#6005
(1699225412.699758) can0 02000200#6204
(1699225412.700765) can0 03C30F0F#87878787878787
(1699225412.709756) can0 02000200#6204
(1699225412.719772) can0 02000200#6204
(1699225412.723971) can0 00E#5E8E13AB00000000
(1699225412.729787) can0 02000200#6204
(1699225412.739805) can0 02000200#6204
(1699225412.749821) can0 02000200#6304
(1699225412.759826) can0 02000200#6304
(1699225412.767596) can0 14300100#0000
(1699225412.769860) can0 02000200#6204
(1699225412.774084) can0 00E#5E8E13AB00000000
(1699225412.779857) can0 02000200#6204
(1699225412.789872) can0 02000200#6204
(1699225412.799913) can0 02000200#6204
(1699225412.800917) can0 03C30F0F#87878787878787
(1699225412.809912) can0 02000200#6205
(1699225412.819934) can0 02000200#6007
(1699225412.824117) can0 00E#5E8E13AB00000000
(1699225412.829925) can0 02000200#5B0A
(1699225412.834015) can0 0C180000#0202
(1699225412.839952) can0 02000200#530F
(1699225412.849971) can0 02000200#4915
(1699225412.857527) can0 140C0101#0000
(1699225412.860007) can0 02000200#3F1A
(1699225412.869982) can0 02000200#361D
(1699225412.874223) can0 00E#5E8E13AB00000000
(1699225412.880027) can0 02000200#2E1F
(1699225412.884132) can0 0C180001#200101
(1699225412.890041) can0 02000200#291F
(1699225412.900056) can0 02000200#251E
(1699225412.901065) can0 03C30F0F#87878787878787
(1699225412.910066) can0 02000200#221B
(1699225412.920070) can0 02000200#1F17
(1699225412.924267) can0 00E#5E8E13AB00000000
(1699225412.930077) can0 02000200#1B13
(1699225412.933994) can0 0C180001#000101
(1699225412.940119) can0 02000200#180D
(1699225412.950141) can0 02000200#1407
(1699225412.960145) can0 02000200#0000
(1699225412.970174) can0 02000200#0000
(1699225412.974367) can0 00E#5E8E13AB00000000
(1699225412.980187) can0 02000200#0000
(1699225412.984069) can0 0C180001#010101
(1699225412.990199) can0 02000200#0000
(1699225413.000262) can0 02000200#0000
(1699225413.001229) can0 03C30F0F#87878787878787
(1699225413.010227) can0 02000200#0000
(1699225413.017418) can0 14300100#0000
(1699225413.020249) can0 02000200#0000
(1699225413.024417) can0 00E#5E8E13AB00000000
(1699225413.030253) can0 02000200#0000
(1699225413.033809) can0 0C180000#0201
(1699225413.040308) can0 02000200#0000
(1699225413.050304) can0 02000200#0000
(1699225413.060297) can0 02000200#0000
(1699225413.070356) can0 02000200#0000
(1699225413.074539) can0 00E#5E8E13AB00000000
(1699225413.080347) can0 02000200#0000
(1699225413.082959) can0 0C140000#02
(1699225413.090365) can0 02000200#0000
(1699225413.100436) can0 02000200#0000
(1699225413.101408) can0 03C30F0F#87878787878787
(1699225413.107338) can0 140C0101#0000
(1699225413.110394) can0 02000200#0000
(1699225413.120395) can0 02000200#0000
(1699225413.124596) can0 00E#5E8E13AB00000000
(1699225413.130402) can0 02000200#0000
(1699225413.140433) can0 02000200#0000
(1699225413.150445) can0 02000200#0000
(1699225413.160470) can0 02000200#0000
(1699225413.170469) can0 02000200#0000
(1699225413.174669) can0 00E#5E8E13AB00000000
(1699225413.180505) can0 02000200#0000
(1699225413.190493) can0 02000200#0000
(1699225413.200552) can0 02000200#0000
(1699225413.201525) can0 03C30F0F#87878787878787
(1699225413.210536) can0 02000200#0000
(1699225413.220561) can0 02000200#0000
(1699225413.224734) can0 00E#5E8E13AB00000000
(1699225413.230556) can0 02000200#0000
(1699225413.240584) can0 02000200#0000
(1699225413.247150) can0 0C140100#C0
(1699225413.250580) can0 02000200#0000
(1699225413.260615) can0 02000200#0000
(1699225413.267214) can0 14300100#0000
(1699225413.270630) can0 02000200#0000
(1699225413.274817) can0 00E#5E8E13AB00000000
(1699225413.280673) can0 02000200#0000
(1699225413.290661) can0 02000200#0000
(1699225413.300668) can0 02000200#0000
(1699225413.301675) can0 03C30F0F#87878787878787
(1699225413.310675) can0 02000200#0000
(1699225413.320693) can0 02000200#0000
(1699225413.324889) can0 00E#5E8E13AB00000000
(1699225413.330698) can0 02000200#0000
(1699225413.340730) can0 02000200#0000
(1699225413.347072) can0 0C140100#C1
(1699225413.350737) can0 02000200#0000
(1699225413.357136) can0 140C0101#0000
(1699225413.360769) can0 02000200#0000
(1699225413.370796) can0 02000200#0000
(1699225413.374988) can0 00E#5E8E13AB00000000
(1699225413.380795) can0 02000200#0000
(1699225413.390787) can0 02000200#1300
(1699225413.400836) can0 02000200#1700
(1699225413.401825) can0 03C30F0F#87878787878787
(1699225413.410838) can0 02000200#1B00
(1699225413.420849) can0 02000200#2000
(1699225413.425039) can0 00E#5E8E13AB00000000
(1699225413.430851) can0 02000200#2501
(1699225413.440882) can0 02000200#2B01
(1699225413.450894) can0 02000200#3002
(1699225413.460901) can0 02000200#3602
(1699225413.470935) can0 02000200#3D03
(1699225413.475138) can0 00E#5E8E13AB00000000
(1699225413.480941) can0 02000200#4403
(1699225413.483777) can0 181C0000#0A60000000000000
(1699225413.490950) can0 02000200#4C03
(1699225413.500998) can0 02000200#5303
(1699225413.501985) can0 03C30F0F#87878787878787
(1699225413.510979) can0 02000200#5A03
(1699225413.517017) can0 14300100#0000
(1699225413.520984) can0 02000200#6002
(1699225413.525177) can0 00E#5E8E13AB00000000
(1699225413.530997) can0 02000200#6303
(1699225413.541018) can0 02000200#6305
(1699225413.551050) can0 02000200#6307
(1699225413.561032) can0 02000200#6308
(1699225413.571108) can0 02000200#620A
(1699225413.575309) can0 00E#5E8E13AB00000000
(1699225413.581078) can0 02000200#620B
(1699225413.582592) can0 0C140000#03
(1699225413.591130) can0 02000200#620B
(1699225413.601143) can0 02000200#620B
(1699225413.602131) can0 03C30F0F#87878787878787
(1699225413.606844) can0 1C0C0100#94
(1699225413.607565) can0 140C0101#0000
(1699225413.611115) can0 02000200#620B
(1699225413.621134) can0 02000200#620B
(1699225413.625329) can0 00E#5E8E13AB00000000
(1699225413.627349) can0 1C300104#F74E0200F74E0200
(1699225413.631156) can0 02000200#600B
(1699225413.641159) can0 02000200#5D0C
(1699225413.651172) can0 02000200#570E
(1699225413.661204) can0 02000200#5110
(1699225413.671197) can0 02000200#4912
(1699225413.675441) can0 00E#5E8E13AB00000000
(1699225413.681246) can0 02000200#4213
(1699225413.683349) can0 0C180000#0202
(1699225413.691253) can0 02000200#3C14
(1699225413.701275) can0 02000200#3514
(1699225413.702267) can0 03C30F0F#87878787878787
(1699225413.711271) can0 02000200#2E12
(1699225413.721282) can0 02000200#2811
(1699225413.725494) can0 00E#5E8E13AB00000000
(1699225413.731321) can0 02000200#220F
(1699225413.733337) can0 0C180001#210101
(1699225413.741329) can0 02000200#1E0C
(1699225413.751350) can0 02000200#1909
(1699225413.761362) can0 02000200#1407
(1699225413.766838) can0 14300100#0000
(1699225413.771383) can0 02000200#0000
(1699225413.775582) can0 00E#5E8E13AB00000000
(1699225413.781389) can0 02000200#0000
(1699225413.783376) can0 0C180001#000101
(1699225413.791424) can0 02000200#0000
(1699225413.801515) can0 02000200#0000
(1699225413.802506) can0 03C30F0F#87878787878787
(1699225413.811509) can0 02000200#0000
(1699225413.821498) can0 02000200#0000
(1699225413.825691) can0 00E#5E8E13AB00000000
(1699225413.831515) can0 02000200#0000
(1699225413.833232) can0 0C180000#0201
(1699225413.841552) can0 02000200#0000
(1699225413.851555) can0 02000200#0000
(1699225413.856843) can0 140C0101#0000
(1699225413.861568) can0 02000200#0000
(1699225413.871613) can0 02000200#0000
(1699225413.875818) can0 00E#5E8E13AB00000000
(1699225413.881610) can0 02000200#0000
(1699225413.891681) can0 02000200#0000
(1699225413.901639) can0 02000200#0000
(1699225413.902651) can0 03C30F0F#87878787878787
(1699225413.911631) can0 02000200#0000
(1699225413.921687) can0 02000200#0000
(1699225413.925851) can0 00E#5E8E13AB00000000
(1699225413.931668) can0 02000200#0000
(1699225413.941681) can0 02000200#0000
(1699225413.951717) can0 02000200#0000
(1699225413.961751) can0 02000200#0000
(1699225413.971734) can0 02000200#0000
(1699225413.975941) can0 00E#5E8E13AB00000000
(1699225413.981788) can0 02000200#0000
(1699225413.991798) can0 02000200#0000
(1699225414.001836) can0 02000200#0000
(1699225414.002790) can0 03C30F0F#87878787878787
(1699225414.011791) can0 02000200#0000
(1699225414.016685) can0 14300100#0000
(1699225414.021804) can0 02000200#0000
(1699225414.026013) can0 00E#5E8E13AB00000000
(1699225414.031823) can0 02000200#0000
(1699225414.041842) can0 02000200#0000
(1699225414.051855) can0 02000200#0000
(1699225414.061876) can0 02000200#0000
(1699225414.071949) can0 02000200#0000
(1699225414.076129) can0 00E#5E8E13AB00000000
(1699225414.081939) can0 02000200#0000
(1699225414.082564) can0 0C140000#02
(1699225414.092021) can0 02000200#0000
(1699225414.102033) can0 02000200#0000
(1699225414.102955) can0 03C30F0F#87878787878787
(1699225414.106634) can0 140C0101#0000
(1699225414.111961) can0 02000200#0000
(1699225414.121955) can0 02000200#0000
(1699225414.126159) can0 00E#5E8E13AB00000000
(1699225414.131968) can0 02000200#0000
(1699225414.142013) can0 02000200#0000
(1699225414.152004) can0 02000200#0000
(1699225414.162021) can0 02000200#0000
(1699225414.172037) can0 02000200#0000
(1699225414.176243) can0 00E#5E8E13AB00000000
(1699225414.182061) can0 02000200#0000
(1699225414.192107) can0 02000200#0000
(1699225414.202107) can0 02000200#0000
(1699225414.203091) can0 03C30F0F#87878787878787
(1699225414.212088) can0 02000200#0000
(1699225414.222106) can0 02000200#0000
(1699225414.226299) can0 00E#5E8E13AB00000000
(1699225414.232145) can0 02000200#0000
(1699225414.242144) can0 02000200#0000
(1699225414.246444) can0 0C140100#C0
(1699225414.252158) can0 02000200#0000
(1699225414.262166) can0 02000200#0000
(1699225414.266489) can0 14300100#0000
(1699225414.272208) can0 02000200#0000
(1699225414.276414) can0 00E#5E8E13AB00000000
(1699225414.282260) can0 02000200#0000
(1699225414.292295) can0 02000200#0000
(1699225414.302270) can0 02000200#0000
(1699225414.303261) can0 03C30F0F#87878787878787
(1699225414.312233) can0 02000200#1302
(1699225414.322258) can0 02000200#1701
(1699225414.326463) can0 00E#5E8E13AB00000000
(1699225414.332267) can0 02000200#1D00
(1699225414.342277) can0 02000200#2200
(1699225414.346363) can0 0C140100#C1
(1699225414.352312) can0 02000200#28FF
(1699225414.356440) can0 140C0101#0000
(1699225414.362310) can0 02000200#2EFE
(1699225414.372318) can0 02000200#36FC
(1699225414.376589) can0 00E#5E8E13AB00000000
(1699225414.382409) can0 02000200#3EFB
(1699225414.392433) can0 02000200#47F9
(1699225414.402443) can0 02000200#4FF7
(1699225414.403408) can0 03C30F0F#87878787878787
(1699225414.412387) can0 02000200#57F5
(1699225414.422421) can0 02000200#5FF4
(1699225414.426619) can0 00E#5E8E13AB00000000
(1699225414.432806) can0 181C0000#0A60000000000000
(1699225414.433526) can0 02000200#62F4
(1699225414.442436) can0 02000200#62F4
(1699225414.452467) can0 02000200#62F5
(1699225414.462473) can0 02000200#62F6
(1699225414.472521) can0 02000200#62F7
(1699225414.476717) can0 00E#5E8E13AB00000000
(1699225414.482602) can0 02000200#62F7
(1699225414.492576) can0 02000200#62F8
(1699225414.502607) can0 02000200#62F9
(1699225414.503557) can0 03C30F0F#87878787878787
(1699225414.512585) can0 02000200#62F9
(1699225414.516304) can0 14300100#0000
(1699225414.522553) can0 02000200#62FA
(1699225414.526749) can0 00E#5E8E13AB00000000
(1699225414.532612) can0 02000200#62FB
(1699225414.542587) can0 02000200#62FB
(1699225414.552641) can0 02000200#62FB
(1699225414.562650) can0 02000200#60FC
(1699225414.572683) can0 02000200#5CFE
(1699225414.576886) can0 00E#5E8E13AB00000000
(1699225414.581602) can0 0C140000#03
(1699225414.582675) can0 02000200#5502
(1699225414.592728) can0 02000200#4B05
(1699225414.602740) can0 02000200#4209
(1699225414.603719) can0 03C30F0F#87878787878787
(1699225414.606162) can0 1C0C0100#94
(1699225414.606844) can0 140C0101#0000
(1699225414.612692) can0 02000200#380D
(1699225414.622719) can0 02000200#2F0E
(1699225414.626921) can0 00E#5E8E13AB00000000
(1699225414.632302) can0 0C180000#0202
(1699225414.632971) can0 02000200#270C
(1699225414.636647) can0 1C300104#F74E0200F74E0200
(1699225414.642767) can0 02000200#1F08
(1699225414.652774) can0 02000200#1405
(1699225414.662802) can0 02000200#0000
(1699225414.672793) can0 02000200#0000
(1699225414.677022) can0 00E#5E8E13AB00000000
(1699225414.682376) can0 0C180001#220101
(1699225414.683073) can0 02000200#0000
(1699225414.692846) can0 02000200#0000
(1699225414.702873) can0 02000200#0000
(1699225414.703852) can0 03C30F0F#87878787878787
(1699225414.712849) can0 02000200#0000
(1699225414.722863) can0 02000200#0000
(1699225414.727047) can0 00E#5E8E13AB00000000
(1699225414.732280) can0 0C180001#010101
(1699225414.732982) can0 02000200#0000
(1699225414.742889) can0 02000200#0000
(1699225414.752927) can0 02000200#0000
(1699225414.762925) can0 02000200#0000
(1699225414.766111) can0 14300100#0000
(1699225414.772938) can0 02000200#0000
(1699225414.777187) can0 00E#5E8E13AB00000000
(1699225414.782173) can0 0C180000#0201
(1699225414.782985) can0 02000200#0000
(1699225414.792994) can0 02000200#0000
(1699225414.803002) can0 02000200#0000
(1699225414.803990) can0 03C30F0F#87878787878787
(1699225414.813006) can0 02000200#0000
(1699225414.823007) can0 02000200#0000
(1699225414.827219) can0 00E#5E8E13AB00000000
(1699225414.833039) can0 02000200#0000
(1699225414.843080) can0 02000200#0000
(1699225414.853055) can0 02000200#0000
(1699225414.856072) can0 140C0101#0000
(1699225414.863079) can0 02000200#0000
(1699225414.873094) can0 02000200#0000
(1699225414.877307) can0 00E#5E8E13AB00000000
(1699225414.883169) can0 02000200#0000
(1699225414.893186) can0 02000200#0000
(1699225414.903170) can0 02000200#0000
(1699225414.904184) can0 03C30F0F#87878787878787
(1699225414.913160) can0 02000200#0000
(1699225414.923164) can0 02000200#0000
(1699225414.927350) can0 00E#5E8E13AB00000000
(1699225414.933183) can0 02000200#0000
(1699225414.943223) can0 02000200#0000
(1699225414.953212) can0 02000200#0000
(1699225414.963233) can0 02000200#0000
(1699225414.973246) can0 02000200#0000
(1699225414.977562) can0 00E#5E8E13AB00000000
(1699225414.983258) can0 02000200#0000
(1699225414.993304) can0 02000200#0000
(1699225415.003350) can0 02000200#0000
(1699225415.004296) can0 03C30F0F#87878787878787
(1699225415.013300) can0 02000200#0000
(1699225415.015920) can0 14300100#0000
(1699225415.023316) can0 02000200#0000
(1699225415.027522) can0 00E#5E8E13AB00000000
(1699225415.033327) can0 02000200#0000
(1699225415.043349) can0 02000200#0000
(1699225415.053372) can0 02000200#0000
(1699225415.063380) can0 02000200#0000
(1699225415.073492) can0 02000200#0000
(1699225415.077626) can0 00E#5E8E13AB00000000
(1699225415.081058) can0 0C140000#02
(1699225415.083417) can0 02000200#0000
(1699225415.093563) can0 02000200#0000
(1699225415.103524) can0 02000200#0000
(1699225415.104467) can0 03C30F0F#87878787878787
(1699225415.105864) can0 140C0101#0000
(1699225415.113478) can0 02000200#0000
(1699225415.123494) can0 02000200#0000
(1699225415.127674) can0 00E#5E8E13AB00000000
(1699225415.133491) can0 02000200#0000
(1699225415.143531) can0 02000200#0000
(1699225415.153543) can0 02000200#0000
(1699225415.163531) can0 02000200#0000
(1699225415.173560) can0 02000200#0000
(1699225415.177779) can0 00E#5E8E13AB00000000
(1699225415.183564) can0 02000200#0000
(1699225415.193619) can0 02000200#0000
(1699225415.203619) can0 02000200#0000
(1699225415.204654) can0 03C30F0F#87878787878787
(1699225415.213627) can0 02000200#0000
(1699225415.223643) can0 02000200#0000
(1699225415.227806) can0 00E#5E8E13AB00000000
(1699225415.233665) can0 02000200#0000
(1699225415.243659) can0 02000200#0000
(1699225415.245669) can0 0C140100#C0
(1699225415.253669) can0 02000200#0000
(1699225415.263702) can0 02000200#0000
(1699225415.265720) can0 14300100#0000
(1699225415.273718) can0 02000200#0000
(1699225415.277959) can0 00E#5E8E13AB00000000
(1699225415.283773) can0 02000200#0000
(1699225415.293756) can0 02000200#0000
(1699225415.303787) can0 02000200#0000
(1699225415.304764) can0 03C30F0F#87878787878787
(1699225415.313770) can0 02000200#0000
(1699225415.323766) can0 02000200#0000
(1699225415.327982) can0 00E#5E8E13AB00000000
(1699225415.333779) can0 02000200#0000
(1699225415.343805) can0 02000200#0000
(1699225415.345595) can0 0C140100#C1
(1699225415.353837) can0 02000200#0000
(1699225415.355696) can0 140C0101#0000
(1699225415.363828) can0 02000200#0000
(1699225415.373856) can0 02000200#0000
(1699225415.378076) can0 00E#5E8E13AB00000000
(1699225415.383904) can0 02000200#0000
(1699225415.393952) can0 02000200#0000
(1699225415.403911) can0 02000200#0000
(1699225415.404915) can0 03C30F0F#87878787878787
(1699225415.413918) can0 02000200#0000
(1699225415.423948) can0 02000200#0000
(1699225415.428116) can0 00E#5E8E13AB00000000
(1699225415.433951) can0 02000200#0000
(1699225415.443954) can0 02000200#0000
(1699225415.453982) can0 02000200#0000
(1699225415.463980) can0 02000200#0000
(1699225415.474020) can0 02000200#0000
(1699225415.478223) can0 00E#5E8E13AB00000000
(1699225415.484023) can0 02000200#0000
(1699225415.494078) can0 02000200#0000
(1699225415.504105) can0 02000200#0000
(1699225415.505074) can0 03C30F0F#87878787878787
(1699225415.514060) can0 02000200#0000
(1699225415.515552) can0 14300100#0000
(1699225415.524072) can0 02000200#0000
(1699225415.528283) can0 00E#5E8E13AB00000000
(1699225415.534088) can0 02000200#0000
(1699225415.544123) can0 02000200#0000
(1699225415.554151) can0 02000200#0000
(1699225415.564136) can0 02000200#0000
(1699225415.574250) can0 02000200#0000
(1699225415.578392) can0 00E#5E8E13AB00000000
(1699225415.580598) can0 0C140000#03
(1699225415.584187) can0 02000200#0000
(1699225415.594211) can0 02000200#0000
(1699225415.604272) can0 02000200#0000
(1699225415.605225) can0 03C30F0F#87878787878787
(1699225415.605914) can0 140C0101#0000
(1699225415.606575) can0 1C0C0100#94
(1699225415.614206) can0 02000200#0000
(1699225415.624250) can0 02000200#0000
(1699225415.628407) can0 00E#5E8E13AB00000000
(1699225415.634238) can0 02000200#0000
(1699225415.644258) can0 02000200#0000
(1699225415.645858) can0 1C300104#F74E0200F74E0200
(1699225415.654270) can0 02000200#0000
(1699225415.664319) can0 02000200#0000
(1699225415.674309) can0 02000200#0000
(1699225415.678505) can0 00E#5E8E13AB00000000
(1699225415.684333) can0 02000200#0000
(1699225415.694356) can0 02000200#0000
(1699225415.704366) can0 02000200#0000
(1699225415.705369) can0 03C30F0F#87878787878787
(1699225415.714381) can0 02000200#06F0
(1699225415.724368) can0 02000200#07EE
(1699225415.728596) can0 00E#5E8E13AB00000000
(1699225415.734374) can0 02000200#09EB
(1699225415.744417) can0 02000200#0BE7
(1699225415.754414) can0 02000200#0DE3
(1699225415.764428) can0 02000200#0EE0
(1699225415.765354) can0 14300100#0000
(1699225415.774425) can0 02000200#10DC
(1699225415.778659) can0 00E#5E8E13AB00000000
(1699225415.784441) can0 02000200#12D9
(1699225415.794525) can0 02000200#14D5
(1699225415.804523) can0 02000200#16D1
(1699225415.805520) can0 03C30F0F#87878787878787
(1699225415.814480) can0 02000200#18CD
(1699225415.824582) can0 02000200#1BC9
(1699225415.828703) can0 00E#5E8E13AB00000000
(1699225415.831152) can0 060#90010040
(1699225415.834525) can0 02000200#1DC5
(1699225415.844585) can0 02000200#1FC1
(1699225415.854579) can0 02000200#20BE
(1699225415.855294) can0 140C0101#0000
(1699225415.864588) can0 02000200#21BB
(1699225415.874606) can0 02000200#21B9
(1699225415.878803) can0 00E#5E8E13AB00000000
(1699225415.884658) can0 02000200#22B7
(1699225415.894636) can0 02000200#22B5
(1699225415.904652) can0 02000200#22B4
(1699225415.905653) can0 03C30F0F#87878787878787
(1699225415.914641) can0 02000200#23B2
(1699225415.924663) can0 02000200#24AF
(1699225415.928870) can0 00E#5E8E13AB00000000
(1699225415.934677) can0 02000200#25AC
(1699225415.944683) can0 02000200#25AA
(1699225415.954704) can0 02000200#26A8
(1699225415.964739) can0 02000200#26A8
(1699225415.974743) can0 02000200#26A8
(1699225415.978951) can0 00E#5E8E13AB00000000
(1699225415.984749) can0 02000200#26A8
(1699225415.994770) can0 02000200#26A8
(1699225416.004853) can0 02000200#26A8
(1699225416.005806) can0 03C30F0F#87878787878787
(1699225416.014823) can0 02000200#26A8
(1699225416.015531) can0 14300100#0000
(1699225416.024838) can0 02000200#26A8
(1699225416.029044) can0 00E#5E8E13AB00000000
(1699225416.034844) can0 02000200#26A8
(1699225416.044860) can0 02000200#26A8
(1699225416.054882) can0 02000200#26A8
(1699225416.064891) can0 02000200#25A7
(1699225416.075005) can0 02000200#25A7
(1699225416.079178) can0 00E#5E8E13AB00000000
(1699225416.080173) can0 0C140000#02
(1699225416.084932) can0 02000200#25A7
(1699225416.094984) can0 02000200#25A7
(1699225416.104989) can0 02000200#25A7
(1699225416.105949) can0 03C30F0F#87878787878787
(1699225416.106668) can0 140C0101#0000
(1699225416.114948) can0 02000200#25A7
(1699225416.124991) can0 02000200#25A7
(1699225416.129175) can0 00E#5E8E13AB00000000
(1699225416.135024) can0 02000200#25A7
(1699225416.145029) can0 02000200#25A7
(1699225416.155010) can0 02000200#25A7
(1699225416.165027) can0 02000200#25A7
(1699225416.175032) can0 02000200#25A7
(1699225416.179266) can0 00E#5E8E13AB00000000
(1699225416.185043) can0 02000200#25A7
(1699225416.195090) can0 02000200#25A7
(1699225416.205233) can0 02000200#25A7
(1699225416.206122) can0 03C30F0F#87878787878787
(1699225416.215109) can0 02000200#25A7
(1699225416.225124) can0 02000200#25A7
(1699225416.229319) can0 00E#5E8E13AB00000000
(1699225416.235130) can0 02000200#25A7
(1699225416.244872) can0 0C140100#C0
(1699225416.245578) can0 02000200#25A7
(1699225416.255172) can0 02000200#25A7
(1699225416.264983) can0 14300100#0000
(1699225416.265652) can0 02000200#25A7
(1699225416.275197) can0 02000200#25A7
(1699225416.279477) can0 00E#5E8E13AB00000000
(1699225416.285273) can0 02000200#24A7
(1699225416.295247) can0 02000200#24A7
(1699225416.305256) can0 02000200#24A6
(1699225416.306256) can0 03C30F0F#87878787878787
(1699225416.315255) can0 02000200#24A6
(1699225416.325270) can0 02000200#24A6
(1699225416.329475) can0 00E#5E8E13AB00000000
(1699225416.335292) can0 02000200#24A6
(1699225416.344804) can0 0C140100#C1
(1699225416.345514) can0 02000200#24A6
(1699225416.354893) can0 140C0101#0000
(1699225416.355576) can0 02000200#24A6
(1699225416.365353) can0 02000200#23A6
(1699225416.375371) can0 02000200#23A6
(1699225416.379572) can0 00E#5E8E13AB00000000
(1699225416.385368) can0 02000200#22A5
(1699225416.395406) can0 02000200#22A5
(1699225416.405403) can0 02000200#21A5
(1699225416.406395) can0 03C30F0F#87878787878787
(1699225416.415403) can0 02000200#21A5
(1699225416.425425) can0 02000200#20A5
(1699225416.429617) can0 00E#5E8E13AB00000000
(1699225416.435433) can0 02000200#20A5
(1699225416.445458) can0 02000200#20A5
(1699225416.455471) can0 02000200#20A5
(1699225416.465519) can0 02000200#20A5
(1699225416.475495) can0 02000200#20A5
(1699225416.479745) can0 00E#5E8E13AB00000000
(1699225416.485545) can0 02000200#20A5
(1699225416.495557) can0 02000200#20A5
(1699225416.505620) can0 02000200#20A5
(1699225416.506598) can0 03C30F0F#87878787878787
(1699225416.514765) can0 14300100#0000
(1699225416.515566) can0 02000200#20A5
(1699225416.525571) can0 02000200#20A5
(1699225416.529781) can0 00E#5E8E13AB00000000
(1699225416.535591) can0 02000200#20A5
(1699225416.545616) can0 02000200#20A5
(1699225416.555631) can0 02000200#20A5
(1699225416.565649) can0 02000200#20A5
(1699225416.575674) can0 02000200#20A5
(1699225416.579622) can0 0C140000#03
(1699225416.580553) can0 00E#5E8E13AB00000000
(1699225416.585739) can0 02000200#20A5
(1699225416.595790) can0 02000200#20A5
(1699225416.604688) can0 1C0C0100#94
(1699225416.605313) can0 140C0101#0000
(1699225416.605998) can0 02000200#20A5
(1699225416.606999) can0 03C30F0F#87878787878787
(1699225416.615744) can0 02000200#20A5
(1699225416.625738) can0 02000200#20A5
(1699225416.629936) can0 00E#5E8E13AB00000000
(1699225416.635728) can0 02000200#20A5
(1699225416.645735) can0 02000200#20A5
(1699225416.655045) can0 1C300104#F74E0200F74E0200
(1699225416.655774) can0 02000200#1FA5
(1699225416.665776) can0 02000200#1FA5
(1699225416.675791) can0 02000200#1FA4
(1699225416.680046) can0 00E#5E8E13AB00000000
(1699225416.685837) can0 02000200#1FA4
(1699225416.695839) can0 02000200#1FA4
(1699225416.705870) can0 02000200#1FA4
(1699225416.706850) can0 03C30F0F#87878787878787
(1699225416.715859) can0 02000200#1FA4
(1699225416.725889) can0 02000200#1FA4
(1699225416.730072) can0 00E#5E8E13AB00000000
(1699225416.735905) can0 02000200#1FA4
(1699225416.745915) can0 02000200#1FA4
(1699225416.755926) can0 02000200#1FA4
(1699225416.764617) can0 14300100#0000
(1699225416.765931) can0 02000200#1FA4
(1699225416.775962) can0 02000200#1FA4
(1699225416.780174) can0 00E#5E8E13AB00000000
(1699225416.785963) can0 02000200#1FA4
(1699225416.795998) can0 02000200#1FA4
(1699225416.806014) can0 02000200#1FA4
(1699225416.807004) can0 03C30F0F#87878787878787
(1699225416.816014) can0 02000200#1EA3
(1699225416.826032) can0 02000200#1EA3
(1699225416.830224) can0 00E#5E8E13AB00000000
(1699225416.836104) can0 02000200#1DA3
(1699225416.846091) can0 02000200#1DA3
(1699225416.854500) can0 140C0101#0000
(1699225416.856071) can0 02000200#1DA3
(1699225416.866090) can0 02000200#1DA3
(1699225416.876110) can0 02000200#1DA3
(1699225416.880328) can0 00E#5E8E13AB00000000
(1699225416.886148) can0 02000200#1DA3
(1699225416.896173) can0 02000200#1DA3
(1699225416.906176) can0 02000200#1DA3
(1699225416.907164) can0 03C30F0F#87878787878787
(1699225416.916158) can0 02000200#1CA3
(1699225416.926179) can0 02000200#1CA3
(1699225416.930372) can0 00E#5E8E13AB00000000
(1699225416.936184) can0 02000200#1BA3
(1699225416.946207) can0 02000200#1BA3
(1699225416.956222) can0 02000200#1BA3
(1699225416.966243) can0 02000200#1AA3
(1699225416.976255) can0 02000200#1AA3
(1699225416.980477) can0 00E#5E8E13AB00000000
(1699225416.986274) can0 02000200#1AA3
(1699225416.996341) can0 02000200#1AA3
(1699225417.006357) can0 02000200#1AA3
(1699225417.007334) can0 03C30F0F#87878787878787
(1699225417.014374) can0 14300100#0000
(1699225417.016322) can0 02000200#1AA3
(1699225417.026333) can0 02000200#1AA3
(1699225417.030529) can0 00E#5E8E13AB00000000
(1699225417.036362) can0 02000200#1AA3
(1699225417.046366) can0 02000200#1AA3
(1699225417.056383) can0 02000200#1AA3
(1699225417.066416) can0 02000200#1AA3
(1699225417.076559) can0 02000200#1AA3
(1699225417.079063) can0 0C140000#02
(1699225417.080630) can0 00E#5E8E13AB00000000
(1699225417.086441) can0 02000200#1AA3
(1699225417.096641) can0 02000200#1AA3
(1699225417.104347) can0 140C0101#0000
(1699225417.106477) can0 02000200#1BA3
(1699225417.107464) can0 03C30F0F#87878787878787
(1699225417.116456) can0 02000200#1CA5
(1699225417.126488) can0 02000200#1CAA
(1699225417.130675) can0 00E#5E8E13AB00000000
(1699225417.136526) can0 02000200#1BB3
(1699225417.146507) can0 02000200#19BF
(1699225417.156538) can0 02000200#15CB
(1699225417.166543) can0 02000200#12D7
(1699225417.176611) can0 02000200#0DE2
(1699225417.180779) can0 00E#5E8E13AB00000000
(1699225417.186605) can0 02000200#08EE
(1699225417.196636) can0 02000200#0000
(1699225417.206629) can0 02000200#0000
(1699225417.207620) can0 03C30F0F#87878787878787
(1699225417.216630) can0 02000200#0000
(1699225417.226653) can0 02000200#0000
(1699225417.230829) can0 00E#5E8E13AB00000000
(1699225417.236678) can0 02000200#0000
(1699225417.244102) can0 0C140100#C0
(1699225417.246676) can0 02000200#0000
(1699225417.256691) can0 02000200#0000
(1699225417.264174) can0 14300100#0000
(1699225417.266804) can0 02000200#0000
(1699225417.276720) can0 02000200#0000
(1699225417.280979) can0 00E#5E8E13AB00000000
(1699225417.286792) can0 02000200#0000
(1699225417.296773) can0 02000200#0000
(1699225417.306828) can0 02000200#0000
(1699225417.307790) can0 03C30F0F#87878787878787
(1699225417.316792) can0 02000200#0000
(1699225417.326810) can0 02000200#0000
(1699225417.330988) can0 00E#5E8E13AB00000000
(1699225417.336817) can0 02000200#0000
(1699225417.344027) can0 0C140100#C1
(1699225417.346849) can0 02000200#0000
(1699225417.354109) can0 140C0101#0000
(1699225417.356851) can0 02000200#0000
(1699225417.366865) can0 02000200#0000
(1699225417.376873) can0 02000200#0000
(1699225417.381084) can0 00E#5E8E13AB00000000
(1699225417.386907) can0 02000200#0000
(1699225417.396933) can0 02000200#0000
(1699225417.406934) can0 02000200#0000
(1699225417.407919) can0 03C30F0F#87878787878787
(1699225417.416942) can0 02000200#0000
(1699225417.426978) can0 02000200#0000
(1699225417.431126) can0 00E#5E8E13AB00000000
(1699225417.436973) can0 02000200#0000
(1699225417.446989) can0 02000200#0000
(1699225417.457002) can0 02000200#0000
(1699225417.467010) can0 02000200#0000
(1699225417.477024) can0 02000200#0000
(1699225417.481264) can0 00E#5E8E13AB00000000
(1699225417.487053) can0 02000200#0000
(1699225417.497081) can0 02000200#0000
(1699225417.507248) can0 02000200#0000
(1699225417.508099) can0 03C30F0F#87878787878787
(1699225417.514010) can0 14300100#0000
(1699225417.517105) can0 02000200#0000
(1699225417.527122) can0 02000200#0000
(1699225417.531318) can0 00E#5E8E13AB00000000
(1699225417.537147) can0 02000200#0000
(1699225417.547168) can0 02000200#0000
(1699225417.557178) can0 02000200#0000
(1699225417.567188) can0 02000200#0000
(1699225417.577273) can0 02000200#0000
(1699225417.578731) can0 0C140000#03
(1699225417.581421) can0 00E#5E8E13AB00000000
(1699225417.587220) can0 02000200#0000
(1699225417.597251) can0 02000200#0000
(1699225417.603903) can0 1C0C0100#94
(1699225417.604607) can0 140C0101#0000
(1699225417.607304) can0 02000200#0000
(1699225417.608254) can0 03C30F0F#87878787878787
(1699225417.617246) can0 02000200#0000
(1699225417.627250) can0 02000200#0000
(1699225417.631437) can0 00E#5E8E13AB00000000
(1699225417.637255) can0 02000200#1204
(1699225417.647276) can0 02000200#1604
(1699225417.657289) can0 02000200#1A04
(1699225417.664288) can0 1C300104#F74E0200F74E0200
(1699225417.667311) can0 02000200#1F05
(1699225417.677335) can0 02000200#2405
(1699225417.679384) can0 060#90010000
(1699225417.681526) can0 00E#5E8E13AB00000000
(1699225417.687369) can0 02000200#2B05
(1699225417.697405) can0 02000200#3205
(1699225417.707409) can0 02000200#3904
(1699225417.708431) can0 03C30F0F#87878787878787
(1699225417.717382) can0 02000200#4103
(1699225417.727402) can0 02000200#4901
(1699225417.729624) can0 181C0000#0A60000000000000
(1699225417.731599) can0 00E#5E8E13AB00000000
(1699225417.737417) can0 02000200#5000
(1699225417.747420) can0 02000200#57FE
(1699225417.757460) can0 02000200#5DFC
(1699225417.763803) can0 14300100#0000
(1699225417.767483) can0 02000200#62FB
(1699225417.777465) can0 02000200#62FC
(1699225417.781715) can0 00E#5E8E13AB00000000
(1699225417.787502) can0 02000200#62FC
(1699225417.797519) can0 02000200#63FC
(1699225417.807529) can0 02000200#63FC
(1699225417.808555) can0 03C30F0F#87878787878787
(1699225417.817531) can0 02000200#63FC
(1699225417.827537) can0 02000200#63FC
(1699225417.831743) can0 00E#5E8E13AB00000000
(1699225417.837548) can0 02000200#63FC
(1699225417.847593) can0 02000200#63FC
(1699225417.853739) can0 140C0101#0000
(1699225417.857610) can0 02000200#63FC
(1699225417.867605) can0 02000200#62FC
(1699225417.877653) can0 02000200#62FC
(1699225417.881840) can0 00E#5E8E13AB00000000
(1699225417.887677) can0 02000200#62FB
(1699225417.897684) can0 02000200#61FB
(1699225417.907737) can0 02000200#5FFC
(1699225417.908693) can0 03C30F0F#87878787878787
(1699225417.917734) can0 02000200#5AFE
(1699225417.927712) can0 02000200#5300
(1699225417.929116) can0 0C180000#0202
(1699225417.931909) can0 00E#5E8E13AB00000000
(1699225417.937726) can0 02000200#4C02
(1699225417.947741) can0 02000200#4402
(1699225417.957798) can0 02000200#3D00
(1699225417.967780) can0 02000200#36FE
(1699225417.977804) can0 02000200#2FFF
(1699225417.979271) can0 0C180001#230101
(1699225417.982010) can0 00E#5E8E13AB00000000
(1699225417.987814) can0 02000200#2700
(1699225417.997850) can0 02000200#2003
(1699225418.007863) can0 02000200#1805
(1699225418.008844) can0 03C30F0F#87878787878787
(1699225418.013604) can0 14300100#0000
(1699225418.017834) can0 02000200#1005
(1699225418.027850) can0 02000200#0000
(1699225418.029064) can0 0C180001#030101
(1699225418.032038) can0 00E#5E8E13AB00000000
(1699225418.037876) can0 02000200#0000
(1699225418.047932) can0 02000200#0000
(1699225418.057907) can0 02000200#0000
(1699225418.067936) can0 02000200#0000
(1699225418.077985) can0 02000200#0000
(1699225418.078626) can0 0C140000#02
(1699225418.079831) can0 0C180001#020101
(1699225418.082150) can0 00E#5E8E13AB00000000
(1699225418.087990) can0 02000200#0000
(1699225418.098022) can0 02000200#0000
(1699225418.103610) can0 140C0101#0000
(1699225418.108039) can0 02000200#0000
(1699225418.109022) can0 03C30F0F#87878787878787
(1699225418.117988) can0 02000200#0000
(1699225418.127998) can0 02000200#0000
(1699225418.128878) can0 0C180000#0201
(1699225418.132191) can0 00E#5E8E13AB00000000
(1699225418.138014) can0 02000200#0000
(1699225418.148033) can0 02000200#0000
(1699225418.158049) can0 02000200#0000
(1699225418.168068) can0 02000200#0000
(1699225418.178108) can0 02000200#0000
(1699225418.182306) can0 00E#5E8E13AB00000000
(1699225418.188095) can0 02000200#0000
(1699225418.198142) can0 02000200#0000
(1699225418.208144) can0 02000200#0000
(1699225418.209135) can0 03C30F0F#87878787878787
(1699225418.218151) can0 02000200#0000
(1699225418.228156) can0 02000200#0000
(1699225418.232340) can0 00E#5E8E13AB00000000
(1699225418.238161) can0 02000200#0000
(1699225418.243326) can0 0C140100#C0
(1699225418.248182) can0 02000200#0000
(1699225418.258228) can0 02000200#0000
(1699225418.263433) can0 14300100#0000
(1699225418.268214) can0 02000200#0000
(1699225418.278226) can0 02000200#0000
(1699225418.282484) can0 00E#5E8E13AB00000000
(1699225418.288300) can0 02000200#0000
(1699225418.298335) can0 02000200#0000
(1699225418.308294) can0 02000200#0000
(1699225418.309308) can0 03C30F0F#87878787878787
(1699225418.318294) can0 02000200#0000
(1699225418.328309) can0 02000200#0000
(1699225418.332523) can0 00E#5E8E13AB00000000
(1699225418.338323) can0 02000200#0000
(1699225418.343290) can0 0C140100#C1
(1699225418.348343) can0 02000200#0000
(1699225418.353345) can0 140C0101#0000
(1699225418.358354) can0 02000200#0000
(1699225418.368364) can0 02000200#0000
(1699225418.378406) can0 02000200#0000
(1699225418.382585) can0 00E#5E8E13AB00000000
(1699225418.388407) can0 02000200#0000
(1699225418.398440) can0 02000200#0000
(1699225418.408469) can0 02000200#0000
(1699225418.409462) can0 03C30F0F#87878787878787
(1699225418.418499) can0 02000200#0000
(1699225418.428521) can0 02000200#0000
(1699225418.432668) can0 00E#5E8E13AB00000000
(1699225418.438492) can0 02000200#0000
(1699225418.448555) can0 02000200#0000
(1699225418.458523) can0 02000200#0000
(1699225418.468573) can0 02000200#0000
(1699225418.478556) can0 02000200#0000
(1699225418.482761) can0 00E#5E8E13AB00000000
(1699225418.488624) can0 02000200#0000
(1699225418.498651) can0 02000200#0000
(1699225418.508670) can0 02000200#0000
(1699225418.509624) can0 03C30F0F#87878787878787
(1699225418.513281) can0 14300100#0000
(1699225418.518615) can0 02000200#0000
(1699225418.528663) can0 02000200#0000
(1699225418.532813) can0 00E#5E8E13AB00000000
(1699225418.538657) can0 02000200#0000
(1699225418.548677) can0 02000200#0000
(1699225418.558674) can0 02000200#0000
(1699225418.568700) can0 02000200#0000
(1699225418.577626) can0 0C140000#03
(1699225418.578743) can0 02000200#0000
(1699225418.582989) can0 00E#5E8E13AB00000000
(1699225418.588733) can0 02000200#0000
(1699225418.598839) can0 02000200#0000
(1699225418.603107) can0 1C0C0100#94
(1699225418.603793) can0 140C0101#0000
(1699225418.608796) can0 02000200#0000
(1699225418.609746) can0 03C30F0F#87878787878787
(1699225418.618753) can0 02000200#0000
(1699225418.628768) can0 02000200#0000
(1699225418.632949) can0 00E#5E8E13AB00000000
(1699225418.638779) can0 02000200#0000
(1699225418.648792) can0 02000200#0000
(1699225418.658807) can0 02000200#0000
(1699225418.668852) can0 02000200#0000
(1699225418.673531) can0 1C300104#F74E0200F74E0200
(1699225418.678842) can0 02000200#0000
(1699225418.683038) can0 00E#5E8E13AB00000000
(1699225418.688891) can0 02000200#0000
(1699225418.698931) can0 02000200#0000
(1699225418.708901) can0 02000200#0000
(1699225418.709891) can0 03C30F0F#87878787878787
(1699225418.718900) can0 02000200#0000
(1699225418.728913) can0 02000200#0000
(1699225418.733116) can0 00E#5E8E13AB00000000
(1699225418.738929) can0 02000200#0000
(1699225418.748978) can0 02000200#0000
(1699225418.758964) can0 02000200#0000
(1699225418.763024) can0 14300100#0000
(1699225418.768979) can0 02000200#0000
(1699225418.778995) can0 02000200#0000
(1699225418.783198) can0 00E#5E8E13AB00000000
(1699225418.789015) can0 02000200#0000
(1699225418.799051) can0 02000200#0000
(1699225418.809099) can0 02000200#0000
(1699225418.810059) can0 03C30F0F#87878787878787
(1699225418.819048) can0 02000200#0000
(1699225418.829066) can0 02000200#0000
(1699225418.833245) can0 00E#5E8E13AB00000000
(1699225418.839106) can0 02000200#0000
(1699225418.849104) can0 02000200#0000
(1699225418.852959) can0 140C0101#0000
(1699225418.859111) can0 02000200#0000
(1699225418.869136) can0 02000200#0000
(1699225418.879147) can0 02000200#0000
(1699225418.883353) can0 00E#5E8E13AB00000000
(1699225418.889195) can0 02000200#0000
(1699225418.899207) can0 02000200#0000
(1699225418.909228) can0 02000200#0000
(1699225418.910188) can0 03C30F0F#87878787878787
(1699225418.919204) can0 02000200#0000
(1699225418.929213) can0 02000200#0000
(1699225418.933399) can0 00E#5E8E13AB00000000
(1699225418.939230) can0 02000200#0000
(1699225418.949249) can0 02000200#0000
(1699225418.959307) can0 02000200#0000
(1699225418.969283) can0 02000200#0000
(1699225418.979342) can0 02000200#0000
(1699225418.983540) can0 00E#5E8E13AB00000000
(1699225418.989315) can0 02000200#0000
(1699225418.999349) can0 02000200#0000
(1699225419.009374) can0 02000200#0000
(1699225419.010371) can0 03C30F0F#87878787878787
(1699225419.012838) can0 14300100#0000
(1699225419.019347) can0 02000200#0000
(1699225419.029373) can0 02000200#0000
(1699225419.033548) can0 00E#5E8E13AB00000000
(1699225419.039389) can0 02000200#0000
(1699225419.049401) can0 02000200#0000
(1699225419.059415) can0 02000200#0000
(1699225419.069428) can0 02000200#0000
(1699225419.077059) can0 0C140000#02
(1699225419.079514) can0 02000200#0000
(1699225419.083686) can0 00E#5E8E13AB00000000
(1699225419.089484) can0 02000200#0000
(1699225419.099588) can0 02000200#0000
(1699225419.102831) can0 140C0101#0000
(1699225419.109537) can0 02000200#0000
(1699225419.110532) can0 03C30F0F#87878787878787
(1699225419.119508) can0 02000200#0000
(1699225419.129519) can0 02000200#0000
(1699225419.133702) can0 00E#5E8E13AB00000000
(1699225419.139553) can0 02000200#0013
(1699225419.149571) can0 02000200#FF17
(1699225419.159566) can0 02000200#FE1B
(1699225419.169597) can0 02000200#FE1E
(1699225419.179578) can0 02000200#FE23
(1699225419.183816) can0 00E#5E8E13AB00000000
(1699225419.189601) can0 02000200#FE27
(1699225419.199630) can0 02000200#FE2C
(1699225419.209652) can0 02000200#FD31
(1699225419.210652) can0 03C30F0F#87878787878787
(1699225419.219658) can0 02000200#FC36
(1699225419.229718) can0 02000200#FB3C
(1699225419.233866) can0 00E#5E8E13AB00000000
(1699225419.239694) can0 02000200#FB41
(1699225419.242566) can0 0C140100#C0
(1699225419.249697) can0 02000200#F947
(1699225419.259733) can0 02000200#F84C
(1699225419.262664) can0 14300100#0000
(1699225419.269719) can0 02000200#F752
(1699225419.277731) can0 060#90010040
(1699225419.279758) can0 02000200#F557
(1699225419.283987) can0 00E#5E8E13AB00000000
(1699225419.289804) can0 02000200#F45B
(1699225419.299817) can0 02000200#F360
(1699225419.309814) can0 02000200#F362
(1699225419.310800) can0 03C30F0F#87878787878787
(1699225419.319794) can0 02000200#F562
(1699225419.329811) can0 02000200#F662
(1699225419.334010) can0 00E#5E8E13AB00000000
(1699225419.339841) can0 02000200#F762
(1699225419.342486) can0 0C140100#C1
(1699225419.349869) can0 02000200#F862
(1699225419.352639) can0 140C0101#0000
(1699225419.359865) can0 02000200#F862
(1699225419.369903) can0 02000200#F962
(1699225419.379889) can0 02000200#F962
(1699225419.384118) can0 00E#5E8E13AB00000000
(1699225419.389948) can0 02000200#FA63
(1699225419.399935) can0 02000200#FA63
(1699225419.409955) can0 02000200#FA63
(1699225419.410942) can0 03C30F0F#87878787878787
(1699225419.419946) can0 02000200#FA63
(1699225419.429962) can0 02000200#FA63
(1699225419.434178) can0 00E#5E8E13AB00000000
(1699225419.439988) can0 02000200#FA63
(1699225419.450007) can0 02000200#FA63
(1699225419.460009) can0 02000200#FA63
(1699225419.470023) can0 02000200#FA63
(1699225419.480035) can0 02000200#FA63
(1699225419.484260) can0 00E#5E8E13AB00000000
(1699225419.490090) can0 02000200#FA63
(1699225419.500132) can0 02000200#FA63
(1699225419.510120) can0 02000200#FA63
(1699225419.511118) can0 03C30F0F#87878787878787
(1699225419.512449) can0 14300100#0000
(1699225419.520099) can0 02000200#FA63
(1699225419.530118) can0 02000200#FA63
(1699225419.534315) can0 00E#5E8E13AB00000000
(1699225419.540141) can0 02000200#FA63
(1699225419.550152) can0 02000200#FA63
(1699225419.560172) can0 02000200#FA63
(1699225419.570206) can0 02000200#FA63
(1699225419.576621) can0 0C140000#03
(1699225419.580236) can0 02000200#FA63
(1699225419.584453) can0 00E#5E8E13AB00000000
(1699225419.590237) can0 02000200#FA63
(1699225419.600320) can0 02000200#FA63
(1699225419.602338) can0 1C0C0100#94
(1699225419.603031) can0 140C0101#0000
(1699225419.610312) can0 02000200#FA63
(1699225419.611247) can0 03C30F0F#87878787878787
(1699225419.620276) can0 02000200#FA63
(1699225419.630272) can0 02000200#FB63
(1699225419.634464) can0 00E#5E8E13AB00000000
(1699225419.640292) can0 02000200#FB63
(1699225419.650331) can0 02000200#FB63
(1699225419.660336) can0 02000200#FB63
(1699225419.670355) can0 02000200#FB63
(1699225419.680348) can0 02000200#FB63
(1699225419.682724) can0 1C300104#F74E0200F74E0200
(1699225419.684596) can0 00E#5E8E13AB00000000
(1699225419.690428) can0 02000200#FB63
(1699225419.700426) can0 02000200#FB63
(1699225419.710425) can0 02000200#FB63
(1699225419.711408) can0 03C30F0F#87878787878787
(1699225419.720408) can0 02000200#FB63
(1699225419.730425) can0 02000200#FB63
(1699225419.734611) can0 00E#5E8E13AB00000000
(1699225419.740466) can0 02000200#FB63
(1699225419.750457) can0 02000200#FB63
(1699225419.760469) can0 02000200#FB63
(1699225419.762253) can0 14300100#0000
(1699225419.770493) can0 02000200#FB63
(1699225419.780541) can0 02000200#FB63
(1699225419.784714) can0 00E#5E8E13AB00000000
(1699225419.790519) can0 02000200#FB63
(1699225419.800593) can0 02000200#FB63
(1699225419.810591) can0 02000200#FB63
(1699225419.811551) can0 03C30F0F#87878787878787
(1699225419.820591) can0 02000200#FB63
(1699225419.830577) can0 02000200#FB63
(1699225419.834769) can0 00E#5E8E13AB00000000
(1699225419.840621) can0 02000200#FB63
(1699225419.850609) can0 02000200#FB63
(1699225419.852185) can0 140C0101#0000
(1699225419.860633) can0 02000200#FB63
(1699225419.870661) can0 02000200#FB63
(1699225419.880651) can0 02000200#FB63
(1699225419.884861) can0 00E#5E8E13AB00000000
(1699225419.890702) can0 02000200#FB63
(1699225419.900688) can0 02000200#FB63
(1699225419.910808) can0 02000200#FB63
(1699225419.911730) can0 03C30F0F#87878787878787
(1699225419.920714) can0 02000200#FB63
(1699225419.930724) can0 02000200#FB63
(1699225419.934926) can0 00E#5E8E13AB00000000
(1699225419.940734) can0 02000200#FB63
(1699225419.950763) can0 02000200#FB63
(1699225419.960797) can0 02000200#FB63
(1699225419.970785) can0 02000200#FB63
(1699225419.980802) can0 02000200#FB63
(1699225419.985024) can0 00E#5E8E13AB00000000
(1699225419.990816) can0 02000200#FB63
(1699225420.000863) can0 02000200#FB63
(1699225420.010892) can0 02000200#FB63
(1699225420.011866) can0 03C30F0F#87878787878787
(1699225420.012641) can0 14300100#0000
(1699225420.020862) can0 02000200#FB63
(1699225420.030888) can0 02000200#FB63
(1699225420.035093) can0 00E#5E8E13AB00000000
(1699225420.040897) can0 02000200#FB63
(1699225420.050920) can0 02000200#FB63
(1699225420.060926) can0 02000200#FB63
(1699225420.070942) can0 02000200#FB63
(1699225420.076050) can0 0C140000#02
(1699225420.081014) can0 02000200#FB63
(1699225420.085207) can0 00E#5E8E13AB00000000
(1699225420.091024) can0 02000200#FB63
(1699225420.101043) can0 02000200#FB63
(1699225420.102027) can0 140C0101#0000
(1699225420.111146) can0 02000200#FB63
(1699225420.112037) can0 03C30F0F#87878787878787
(1699225420.121088) can0 02000200#FB63
(1699225420.131030) can0 02000200#FB63
(1699225420.135223) can0 00E#5E8E13AB00000000
(1699225420.141071) can0 02000200#FB63
(1699225420.151065) can0 02000200#FB63
(1699225420.161080) can0 02000200#FB63
(1699225420.171083) can0 02000200#FB63
(1699225420.181112) can0 02000200#FB63
(1699225420.185328) can0 00E#5E8E13AB00000000
(1699225420.191125) can0 02000200#FB63
(1699225420.201157) can0 02000200#FB63
(1699225420.211168) can0 02000200#FB63
(1699225420.212184) can0 03C30F0F#87878787878787
(1699225420.221159) can0 02000200#FB63
(1699225420.231181) can0 02000200#FB63
(1699225420.235377) can0 00E#5E8E13AB00000000
(1699225420.241205) can0 02000200#FB63
(1699225420.241846) can0 0C140100#C0
(1699225420.251207) can0 02000200#FB63
(1699225420.261220) can0 02000200#FB63
(1699225420.261949) can0 14300100#0000
(1699225420.271233) can0 02000200#FB63
(1699225420.281330) can0 02000200#FB63
(1699225420.285533) can0 00E#5E8E13AB00000000
(1699225420.291317) can0 02000200#FB63
(1699225420.301310) can0 02000200#FB63
(1699225420.311314) can0 02000200#FB63
(1699225420.312311) can0 03C30F0F#87878787878787
(1699225420.321308) can0 02000200#FB63
(1699225420.331324) can0 02000200#FB63
(1699225420.335516) can0 00E#5E8E13AB00000000
(1699225420.341340) can0 02000200#FB63
(1699225420.341982) can0 0C140100#C1
(1699225420.351353) can0 02000200#FB63
(1699225420.352067) can0 140C0101#0000
(1699225420.361376) can0 02000200#FB63
(1699225420.371416) can0 02000200#FB63
(1699225420.381395) can0 02000200#FB63
(1699225420.385623) can0 00E#5E8E13AB00000000
(1699225420.391424) can0 02000200#FB63
(1699225420.401464) can0 02000200#FB63
(1699225420.411460) can0 02000200#FB63
(1699225420.412482) can0 03C30F0F#87878787878787
(1699225420.421460) can0 02000200#FB63
(1699225420.431488) can0 02000200#FB63
(1699225420.435665) can0 00E#5E8E13AB00000000
(1699225420.441508) can0 02000200#FB63
(1699225420.451509) can0 02000200#FB63
(1699225420.461549) can0 02000200#FB63
(1699225420.471566) can0 02000200#FB63
(1699225420.481547) can0 02000200#FB63
(1699225420.485760) can0 00E#5E8E13AB00000000
(1699225420.491608) can0 02000200#FB63
(1699225420.501638) can0 02000200#FB63
(1699225420.511634) can0 02000200#FB63
(1699225420.512659) can0 03C30F0F#87878787878787
(1699225420.513319) can0 14300100#0000
(1699225420.521613) can0 02000200#FB63
(1699225420.531631) can0 02000200#FB63
(1699225420.535820) can0 00E#5E8E13AB00000000
(1699225420.541666) can0 02000200#FB63
(1699225420.551689) can0 02000200#FB63
(1699225420.561677) can0 02000200#FB63
(1699225420.571699) can0 02000200#FB63
(1699225420.575607) can0 0C140000#03
(1699225420.581826) can0 02000200#FB63
(1699225420.585959) can0 00E#5E8E13AB00000000
(1699225420.591761) can0 02000200#FB63
(1699225420.601571) can0 1C0C0100#8A
(1699225420.602247) can0 02000200#FB63
(1699225420.602954) can0 140C0101#0000
(1699225420.611808) can0 02000200#FB63
(1699225420.612787) can0 03C30F0F#87878787878787
(1699225420.621770) can0 02000200#FB63
(1699225420.631781) can0 02000200#FB63
(1699225420.635971) can0 00E#5E8E13AB00000000
(1699225420.641828) can0 02000200#FB63
(1699225420.651812) can0 02000200#FB63
(1699225420.661835) can0 02000200#FB63
(1699225420.671845) can0 02000200#FB63
(1699225420.681871) can0 02000200#FB63
(1699225420.686065) can0 00E#5E8E13AB00000000
(1699225420.691997) can0 1C300104#F74E0200F74E0200
(1699225420.692680) can0 02000200#FB63
(1699225420.701945) can0 02000200#FB63
(1699225420.711915) can0 02000200#FB63
(1699225420.712913) can0 03C30F0F#87878787878787
(1699225420.721915) can0 02000200#FB63
(1699225420.731935) can0 02000200#FB63
(1699225420.736124) can0 00E#5E8E13AB00000000
(1699225420.741959) can0 02000200#FB63
(1699225420.751958) can0 02000200#FA62
(1699225420.761499) can0 14300100#0000
(1699225420.762190) can0 02000200#FA63
(1699225420.771980) can0 02000200#FA62
(1699225420.782001) can0 02000200#FA62
(1699225420.786277) can0 00E#5E8E13AB00000000
(1699225420.792016) can0 02000200#FA62
(1699225420.802047) can0 02000200#FA63
(1699225420.812064) can0 02000200#FA62
(1699225420.813057) can0 03C30F0F#87878787878787
(1699225420.822061) can0 02000200#FA63
(1699225420.832076) can0 02000200#FA62
(1699225420.836278) can0 00E#5E8E13AB00000000
(1699225420.842092) can0 02000200#FA62
(1699225420.851413) can0 140C0101#0000
(1699225420.852127) can0 02000200#FA62
(1699225420.862121) can0 02000200#FA62
(1699225420.872157) can0 02000200#FA62
(1699225420.882148) can0 02000200#F962
(1699225420.886370) can0 00E#5E8E13AB00000000
(1699225420.892209) can0 02000200#F962
(1699225420.902237) can0 02000200#F962
(1699225420.912214) can0 02000200#F962
(1699225420.913210) can0 03C30F0F#87878787878787
(1699225420.922228) can0 02000200#F861
(1699225420.932257) can0 02000200#F860
(1699225420.936417) can0 00E#5E8E13AB00000000
(1699225420.942260) can0 02000200#F85F
(1699225420.952255) can0 02000200#F85E
(1699225420.962288) can0 02000200#F85B
(1699225420.972287) can0 02000200#F958
(1699225420.982308) can0 02000200#FB54
(1699225420.986534) can0 00E#5E8E13AB00000000
(1699225420.992323) can0 02000200#FC4F
(1699225421.002381) can0 02000200#FF49
(1699225421.011309) can0 14300100#0000
(1699225421.012382) can0 02000200#0243
(1699225421.013373) can0 03C30F0F#87878787878787
(1699225421.022377) can0 02000200#043C
(1699225421.032382) can0 02000200#0535
(1699225421.036602) can0 00E#5E8E13AB00000000
(1699225421.042414) can0 02000200#072E
(1699225421.052404) can0 02000200#0727
(1699225421.062448) can0 02000200#0820
(1699225421.072455) can0 02000200#081A
(1699225421.075032) can0 0C140000#02
(1699225421.082617) can0 02000200#0714
(1699225421.086702) can0 00E#5E8E13AB00000000
(1699225421.092595) can0 02000200#0000
(1699225421.101250) can0 140C0101#0000
(1699225421.102542) can0 02000200#0000
(1699225421.112630) can0 02000200#0000
(1699225421.113541) can0 03C30F0F#87878787878787
(1699225421.122536) can0 02000200#0000
(1699225421.132577) can0 02000200#0000
(1699225421.136822) can0 00E#5E8E13AB00000000
(1699225421.142558) can0 02000200#0000
(1699225421.152616) can0 02000200#0000
(1699225421.162591) can0 02000200#0000
(1699225421.172651) can0 02000200#0000
(1699225421.182616) can0 02000200#0000
(1699225421.186830) can0 00E#5E8E13AB00000000
(1699225421.192633) can0 02000200#0000
(1699225421.202720) can0 02000200#0000
(1699225421.212681) can0 02000200#0000
(1699225421.213696) can0 03C30F0F#87878787878787
(1699225421.222674) can0 02000200#0000
(1699225421.232689) can0 02000200#0000
(1699225421.236870) can0 00E#5E8E13AB00000000
(1699225421.241032) can0 0C140100#C0
(1699225421.242700) can0 02000200#0000
(1699225421.252724) can0 02000200#0000
(1699225421.261096) can0 14300100#0000
(1699225421.262889) can0 02000200#0000
(1699225421.272759) can0 02000200#0000
(1699225421.282839) can0 02000200#0000
(1699225421.287046) can0 00E#5E8E13AB00000000
(1699225421.292808) can0 02000200#0000
(1699225421.302866) can0 02000200#0000
(1699225421.312835) can0 02000200#0000
(1699225421.313853) can0 03C30F0F#87878787878787
(1699225421.322831) can0 02000200#0000
(1699225421.332852) can0 02000200#0000
(1699225421.337033) can0 00E#5E8E13AB00000000
(1699225421.340949) can0 0C140100#C1
(1699225421.342869) can0 02000200#0000
(1699225421.351040) can0 140C0101#0000
(1699225421.352901) can0 02000200#0000
(1699225421.362895) can0 02000200#0000
(1699225421.372934) can0 02000200#0000
(1699225421.382949) can0 02000200#0000
(1699225421.387158) can0 00E#5E8E13AB00000000
(1699225421.392953) can0 02000200#0000
(1699225421.402982) can0 02000200#0000
(1699225421.412980) can0 02000200#0000
(1699225421.414005) can0 03C30F0F#87878787878787
(1699225421.422985) can0 02000200#0000
(1699225421.433005) can0 02000200#0000
(1699225421.437217) can0 00E#5E8E13AB00000000
(1699225421.443017) can0 02000200#0000
(1699225421.453029) can0 02000200#0000
(1699225421.463041) can0 02000200#0000
(1699225421.473059) can0 02000200#0000
(1699225421.483082) can0 02000200#0000
(1699225421.487280) can0 00E#5E8E13AB00000000
(1699225421.493134) can0 02000200#0000
(1699225421.503152) can0 02000200#0000
(1699225421.510928) can0 14300100#0000
(1699225421.513136) can0 02000200#0000
(1699225421.514133) can0 03C30F0F#87878787878787
(1699225421.523135) can0 02000200#0000
(1699225421.533180) can0 02000200#0000
(1699225421.537331) can0 00E#5E8E13AB00000000
(1699225421.543160) can0 02000200#02EE
(1699225421.553176) can0 02000200#02E7
(1699225421.563200) can0 02000200#03E0
(1699225421.573213) can0 02000200#04D9
(1699225421.574659) can0 0C140000#03
(1699225421.576464) can0 060#90010000
(1699225421.583305) can0 02000200#05D2
(1699225421.587489) can0 00E#5E8E13AB00000000
(1699225421.593239) can0 02000200#07CB
(1699225421.600783) can0 1C0C0100#8A
(1699225421.601620) can0 140C0101#0000
(1699225421.603298) can0 02000200#08C5
(1699225421.613318) can0 02000200#0ABE
(1699225421.614306) can0 03C30F0F#87878787878787
(1699225421.623328) can0 02000200#0CB7
(1699225421.625440) can0 060#90010040
(1699225421.633287) can0 02000200#0DAE
(1699225421.637486) can0 00E#5E8E13AB00000000
(1699225421.643313) can0 02000200#0FA4
(1699225421.653315) can0 02000200#10A1
(1699225421.663373) can0 02000200#10A0
(1699225421.673352) can0 02000200#10A0
(1699225421.683407) can0 02000200#10A0
(1699225421.687589) can0 00E#5E8E13AB00000000
(1699225421.693420) can0 02000200#10A0
(1699225421.701180) can0 1C300104#F74E0200F74E0200
(1699225421.703431) can0 02000200#10A0
(1699225421.707257) can0 1C240201#
(1699225421.713429) can0 02000200#10A0
(1699225421.714450) can0 03C30F0F#87878787878787
(1699225421.723446) can0 02000200#10A0
(1699225421.733436) can0 02000200#10A0
(1699225421.737635) can0 00E#5E8E13AB00000000
(1699225421.743449) can0 02000200#10A0
(1699225421.753469) can0 02000200#10A0
(1699225421.760718) can0 14300100#0000
(1699225421.763481) can0 02000200#10A0
(1699225421.773492) can0 02000200#10A0
(1699225421.783523) can0 02000200#10A0
(1699225421.787742) can0 00E#5E8E13AB00000000
(1699225421.793555) can0 02000200#10A0
(1699225421.803575) can0 02000200#10A0
(1699225421.813577) can0 02000200#10A0
(1699225421.814579) can0 03C30F0F#87878787878787
(1699225421.823583) can0 02000200#10A0
(1699225421.833615) can0 02000200#10A0
(1699225421.837829) can0 00E#5E8E13AB00000000
(1699225421.843616) can0 02000200#10A0
(1699225421.850638) can0 140C0101#0000
(1699225421.853641) can0 02000200#10A0
(1699225421.863641) can0 02000200#10A0
(1699225421.873652) can0 02000200#10A0
(1699225421.883694) can0 02000200#10A0
(1699225421.887911) can0 00E#5E8E13AB00000000
(1699225421.893704) can0 02000200#10A0
(1699225421.903758) can0 02000200#10A0
(1699225421.913728) can0 02000200#10A0
(1699225421.914717) can0 03C30F0F#87878787878787
(1699225421.923761) can0 02000200#10A0
(1699225421.933742) can0 02000200#10A0
(1699225421.937933) can0 00E#5E8E13AB00000000
(1699225421.943760) can0 02000200#10A0
(1699225421.953772) can0 02000200#10A0
(1699225421.963787) can0 02000200#10A0
(1699225421.973809) can0 02000200#10A0
(1699225421.983817) can0 02000200#10A0
(1699225421.988033) can0 00E#5E8E13AB00000000
(1699225421.993828) can0 02000200#10A0
(1699225422.003876) can0 02000200#10A0
(1699225422.010552) can0 14300100#0000
(1699225422.013909) can0 02000200#10A0
(1699225422.014875) can0 03C30F0F#87878787878787
(1699225422.023874) can0 02000200#10A0
(1699225422.033906) can0 02000200#10A0
(1699225422.038098) can0 00E#5E8E13AB00000000
(1699225422.044003) can0 02000200#10A0
(1699225422.053921) can0 02000200#10A0
(1699225422.063942) can0 02000200#10A0
(1699225422.073957) can0 02000200#10A0
(1699225422.074605) can0 0C140000#02
(1699225422.084041) can0 02000200#10A0
(1699225422.088239) can0 00E#5E8E13AB00000000
(1699225422.094040) can0 02000200#10A0
(1699225422.100475) can0 140C0101#0000
(1699225422.104045) can0 02000200#10A0
(1699225422.114119) can0 02000200#10A0
(1699225422.115031) can0 03C30F0F#87878787878787
(1699225422.124061) can0 02000200#10A0
(1699225422.134080) can0 02000200#10A0
(1699225422.138244) can0 00E#5E8E13AB00000000
(1699225422.144065) can0 02000200#10A0
(1699225422.154084) can0 02000200#10A0
(1699225422.164123) can0 02000200#10A0
(1699225422.174116) can0 02000200#10A0
(1699225422.184148) can0 02000200#10A0
(1699225422.188341) can0 00E#5E8E13AB00000000
(1699225422.194129) can0 02000200#10A0
(1699225422.204218) can0 02000200#10A0
(1699225422.214184) can0 02000200#10A0
(1699225422.215180) can0 03C30F0F#87878787878787
(1699225422.224175) can0 02000200#10A0
(1699225422.234208) can0 02000200#10A0
(1699225422.238402) can0 00E#5E8E13AB00000000
(1699225422.240267) can0 0C140100#C0
(1699225422.244213) can0 02000200#10A0
(1699225422.254227) can0 02000200#10A0
(1699225422.260352) can0 14300100#0000
(1699225422.264238) can0 02000200#10A0
(1699225422.274250) can0 02000200#10A0
(1699225422.284318) can0 02000200#10A0
(1699225422.288579) can0 00E#5E8E13AB00000000
(1699225422.294310) can0 02000200#10A0
(1699225422.304326) can0 02000200#10A0
(1699225422.314365) can0 02000200#10A0
(1699225422.315355) can0 03C30F0F#87878787878787
(1699225422.324343) can0 02000200#10A0
(1699225422.334350) can0 02000200#10A0
(1699225422.338546) can0 00E#5E8E13AB00000000
(1699225422.340171) can0 0C140100#C1
(1699225422.344364) can0 02000200#10A0
(1699225422.350257) can0 140C0101#0000
(1699225422.354367) can0 02000200#10A0
(1699225422.364396) can0 02000200#10A0
(1699225422.374428) can0 02000200#10A0
(1699225422.384416) can0 02000200#10A0
(1699225422.388639) can0 00E#5E8E13AB00000000
(1699225422.394445) can0 02000200#10A0
(1699225422.404483) can0 02000200#10A0
(1699225422.414492) can0 02000200#10A0
(1699225422.415493) can0 03C30F0F#87878787878787
(1699225422.424529) can0 02000200#10A0
(1699225422.434521) can0 02000200#10A0
(1699225422.438691) can0 00E#5E8E13AB00000000
(1699225422.444538) can0 02000200#10A0
(1699225422.454525) can0 02000200#10A0
(1699225422.464575) can0 02000200#10A0
(1699225422.474568) can0 02000200#10A0
(1699225422.484594) can0 02000200#10A0
(1699225422.488782) can0 00E#5E8E13AB00000000
(1699225422.494591) can0 02000200#10A0
(1699225422.504629) can0 02000200#10A0
(1699225422.510191) can0 14300100#0000
(1699225422.514658) can0 02000200#10A0
(1699225422.515658) can0 03C30F0F#87878787878787
(1699225422.524631) can0 02000200#10A0
(1699225422.534650) can0 02000200#10A0
(1699225422.538842) can0 00E#5E8E13AB00000000
(1699225422.544655) can0 02000200#10A0
(1699225422.554673) can0 02000200#10A0
(1699225422.564691) can0 02000200#10A0
(1699225422.573574) can0 0C140000#03
(1699225422.574701) can0 02000200#10A0
(1699225422.584791) can0 02000200#10A0
(1699225422.589000) can0 00E#5E8E13AB00000000
(1699225422.594769) can0 02000200#10A0
(1699225422.600003) can0 1C0C0100#94
(1699225422.600698) can0 140C0101#0000
(1699225422.604860) can0 02000200#10A0
(1699225422.614823) can0 02000200#10A0
(1699225422.615785) can0 03C30F0F#87878787878787
(1699225422.624782) can0 02000200#10A0
(1699225422.634825) can0 02000200#10A0
(1699225422.638995) can0 00E#5E8E13AB00000000
(1699225422.644817) can0 02000200#10A0
(1699225422.654830) can0 02000200#10A0
(1699225422.664873) can0 02000200#10A0
(1699225422.674872) can0 02000200#10A0
(1699225422.684877) can0 02000200#10A0
(1699225422.689103) can0 00E#5E8E13AB00000000
(1699225422.694909) can0 02000200#10A0
(1699225422.704925) can0 02000200#10A0
(1699225422.710390) can0 1C300104#F74E0200F74E0200
(1699225422.714943) can0 02000200#10A0
(1699225422.715933) can0 03C30F0F#87878787878787
(1699225422.724934) can0 02000200#10A0
(1699225422.734951) can0 02000200#10A0
(1699225422.739146) can0 00E#5E8E13AB00000000
(1699225422.744983) can0 02000200#10A0
(1699225422.755009) can0 02000200#10A0
(1699225422.759945) can0 14300100#0000
(1699225422.764993) can0 02000200#10A0
(1699225422.775026) can0 02000200#10A0
(1699225422.785023) can0 02000200#10A0
(1699225422.789251) can0 00E#5E8E13AB00000000
(1699225422.795040) can0 02000200#10A0
(1699225422.805078) can0 02000200#10A0
(1699225422.815083) can0 02000200#10A0
(1699225422.816079) can0 03C30F0F#87878787878787
(1699225422.825084) can0 02000200#10A0
(1699225422.835102) can0 02000200#10A0
(1699225422.839300) can0 00E#5E8E13AB00000000
(1699225422.845118) can0 02000200#10A0
(1699225422.849873) can0 140C0101#0000
(1699225422.855132) can0 02000200#10A0
(1699225422.865148) can0 02000200#10A0
(1699225422.875162) can0 02000200#10A0
(1699225422.885177) can0 02000200#10A0
(1699225422.889401) can0 00E#5E8E13AB00000000
(1699225422.895193) can0 02000200#10A0
(1699225422.905281) can0 02000200#10A0
(1699225422.915248) can0 02000200#10A0
(1699225422.916234) can0 03C30F0F#87878787878787
(1699225422.925264) can0 02000200#10A0
(1699225422.935248) can0 02000200#10A0
(1699225422.939456) can0 00E#5E8E13AB00000000
(1699225422.945271) can0 02000200#10A0
(1699225422.955277) can0 02000200#10A0
(1699225422.965303) can0 02000200#10A0
(1699225422.975314) can0 02000200#10A0
(1699225422.985326) can0 02000200#10A0
(1699225422.989560) can0 00E#5E8E13AB00000000
(1699225422.995342) can0 02000200#10A0
(1699225423.005378) can0 02000200#10A0
(1699225423.009767) can0 14300100#0000
(1699225423.015424) can0 02000200#10A0
(1699225423.016382) can0 03C30F0F#87878787878787
(1699225423.025384) can0 02000200#10A0
(1699225423.035404) can0 02000200#10A0
(1699225423.039685) can0 00E#5E8E13AB00000000
(1699225423.045419) can0 02000200#10A0
(1699225423.055445) can0 02000200#10A0
(1699225423.065453) can0 02000200#10A0
(1699225423.073057) can0 0C140000#02
(1699225423.075456) can0 02000200#10A0
(1699225423.085530) can0 02000200#10A0
(1699225423.089742) can0 00E#5E8E13AB00000000
(1699225423.095539) can0 02000200#10A0
(1699225423.099699) can0 140C0101#0000
(1699225423.105604) can0 02000200#10A0
(1699225423.115589) can0 02000200#10A0
(1699225423.116594) can0 03C30F0F#87878787878787
(1699225423.125569) can0 02000200#10A0
(1699225423.135560) can0 02000200#10A0
(1699225423.139761) can0 00E#5E8E13AB00000000
(1699225423.145571) can0 02000200#10A0
(1699225423.155588) can0 02000200#10A0
(1699225423.165602) can0 02000200#10A0
(1699225423.175624) can0 02000200#10A0
(1699225423.185663) can0 02000200#10A0
(1699225423.189854) can0 00E#5E8E13AB00000000
(1699225423.195641) can0 02000200#10A0
(1699225423.205681) can0 02000200#10A0
(1699225423.215698) can0 02000200#10A0
(1699225423.216701) can0 03C30F0F#87878787878787
(1699225423.225686) can0 02000200#10A0
(1699225423.235712) can0 02000200#10A0
(1699225423.239485) can0 0C140100#C0
(1699225423.240431) can0 00E#5E8E13AB00000000
(1699225423.245715) can0 02000200#10A0
(1699225423.255741) can0 02000200#10A0
(1699225423.259560) can0 14300100#0000
(1699225423.265747) can0 02000200#10A0
(1699225423.275766) can0 02000200#10A0
(1699225423.285846) can0 02000200#10A0
(1699225423.290016) can0 00E#5E8E13AB00000000
(1699225423.295806) can0 02000200#10A0
(1699225423.305854) can0 02000200#10A0
(1699225423.315860) can0 02000200#10A0
(1699225423.316864) can0 03C30F0F#87878787878787
(1699225423.325853) can0 02000200#10A0
(1699225423.335853) can0 02000200#10A0
(1699225423.339401) can0 0C140100#C1
(1699225423.340372) can0 00E#5E8E13AB00000000
(1699225423.345866) can0 02000200#10A0
(1699225423.349490) can0 140C0101#0000
(1699225423.355884) can0 02000200#10A0
(1699225423.365897) can0 02000200#10A0
(1699225423.375929) can0 02000200#10A0
(1699225423.385933) can0 02000200#10A0
(1699225423.390177) can0 00E#5E8E13AB00000000
(1699225423.395998) can0 02000200#10A0
(1699225423.406005) can0 02000200#10A0
(1699225423.415991) can0 02000200#10A0
(1699225423.416988) can0 03C30F0F#87878787878787
(1699225423.426021) can0 02000200#10A0
(1699225423.436011) can0 02000200#10A0
(1699225423.440205) can0 00E#5E8E13AB00000000
(1699225423.446040) can0 02000200#10A0
(1699225423.456044) can0 02000200#10A0
(1699225423.466054) can0 02000200#10A0
(1699225423.476066) can0 02000200#10A0
(1699225423.486081) can0 02000200#10A0
(1699225423.490300) can0 00E#5E8E13AB00000000
(1699225423.496099) can0 02000200#10A0
(1699225423.506146) can0 02000200#10A0
(1699225423.509419) can0 14300100#0000
(1699225423.516146) can0 02000200#10A0
(1699225423.517138) can0 03C30F0F#87878787878787
(1699225423.526140) can0 02000200#10A0
(1699225423.536186) can0 02000200#10A0
(1699225423.540363) can0 00E#5E8E13AB00000000
(1699225423.546185) can0 02000200#10A0
(1699225423.556199) can0 02000200#10A0
(1699225423.566207) can0 02000200#10A0
(1699225423.572601) can0 0C140000#03
(1699225423.576224) can0 02000200#10A0
(1699225423.586339) can0 02000200#10A0
(1699225423.590487) can0 00E#5E8E13AB00000000
(1699225423.596271) can0 02000200#10A0
(1699225423.599201) can0 1C0C0100#8A
(1699225423.599912) can0 140C0101#0000
(1699225423.606380) can0 02000200#10A0
(1699225423.616350) can0 02000200#10A0
(1699225423.617292) can0 03C30F0F#87878787878787
(1699225423.626329) can0 02000200#10A0
(1699225423.636309) can0 02000200#10A0
(1699225423.640558) can0 00E#5E8E13AB00000000
(1699225423.646327) can0 02000200#10A0
(1699225423.656353) can0 02000200#10A0
(1699225423.666368) can0 02000200#10A0
(1699225423.676374) can0 02000200#10A0
(1699225423.686388) can0 02000200#10A0
(1699225423.690606) can0 00E#5E8E13AB00000000
(1699225423.696414) can0 02000200#10A0
(1699225423.706443) can0 02000200#10A0
(1699225423.716445) can0 02000200#10A0
(1699225423.717441) can0 03C30F0F#87878787878787
(1699225423.719616) can0 1C300104#F74E0200F74E0200
(1699225423.726444) can0 02000200#10A0
(1699225423.736454) can0 02000200#10A0
(1699225423.740663) can0 00E#5E8E13AB00000000
(1699225423.746482) can0 02000200#10A0
(1699225423.756519) can0 02000200#10A0
(1699225423.759171) can0 14300100#0000
(1699225423.766511) can0 02000200#10A0
(1699225423.776555) can0 02000200#10A0
(1699225423.786542) can0 02000200#10A0
(1699225423.790981) can0 00E#5E8E13AB00000000
(1699225423.796595) can0 02000200#10A0
(1699225423.806589) can0 02000200#10A0
(1699225423.816633) can0 02000200#10A0
(1699225423.817598) can0 03C30F0F#87878787878787
(1699225423.826607) can0 02000200#10A0
(1699225423.836647) can0 02000200#10A0
(1699225423.840809) can0 00E#5E8E13AB00000000
(1699225423.846623) can0 02000200#10A0
(1699225423.849102) can0 140C0101#0000
(1699225423.856649) can0 02000200#10A0
(1699225423.866675) can0 02000200#10A0
(1699225423.876682) can0 02000200#10A0
(1699225423.886695) can0 02000200#10A0
(1699225423.890915) can0 00E#5E8E13AB00000000
(1699225423.896708) can0 02000200#10A0
(1699225423.906761) can0 02000200#10A0
